;$FILEVERSION=2.0
;$STARTTIME=45232.8661187384
;$COLUMNS=N,O,T,I,d,l,D
;
;   Start time: 2023/11/2 20:47:12.659.0
;   Generated by PCAN-View v4.3.4.615
;-------------------------------------------------------------------------------
;   Connection                 Bit rate
;   PCANLight_USB_16@pcan_usb  Nominal 1 MBit/s, Data 1 MBit/s
;-------------------------------------------------------------------------------
;   Message   Time    Type ID     Rx/Tx
;   Number    Offset  |    [hex]  |  Data Length
;   |         [ms]    |    |      |  |  Data [hex] ...
;   |         |       |    |      |  |  |
;---+-- ------+------ +- --+----- +- +- +- +- -- -- -- -- -- -- --
      1       433.242 DT     0080 Rx 0  
      2       437.231 DT     0080 Rx 0  
      3       441.220 DT     0080 Rx 0  
      4       445.211 DT     0080 Rx 0  
      5       449.201 DT     0080 Rx 0  
      6       453.192 DT     0080 Rx 0  
      7       457.080 DT     0080 Rx 0  
      8       461.069 DT     0080 Rx 0  
      9       465.060 DT     0080 Rx 0  
     10       469.049 DT     0080 Rx 0  
     11       473.037 DT     0080 Rx 0  
     12       477.026 DT     0080 Rx 0  
     13       481.014 DT     0080 Rx 0  
     14       485.008 DT     0080 Rx 0  
     15       488.995 DT     0080 Rx 0  
     16       492.984 DT     0080 Rx 0  
     17       496.972 DT     0080 Rx 0  
     18       500.963 DT     0080 Rx 0  
     19       504.953 DT     0080 Rx 0  
     20       508.943 DT     0080 Rx 0  
     21       512.932 DT     0080 Rx 0  
     22       516.921 DT     0080 Rx 0  
     23       520.911 DT     0080 Rx 0  
     24       524.901 DT     0080 Rx 0  
     25       528.892 DT     0080 Rx 0  
     26       532.879 DT     0080 Rx 0  
     27       536.871 DT     0080 Rx 0  
     28       540.859 DT     0080 Rx 0  
     29       544.849 DT     0080 Rx 0  
     30       548.840 DT     0080 Rx 0  
     31       552.829 DT     0080 Rx 0  
     32       556.818 DT     0080 Rx 0  
     33       560.808 DT     0080 Rx 0  
     34       564.798 DT     0080 Rx 0  
     35       568.789 DT     0080 Rx 0  
     36       572.777 DT     0080 Rx 0  
     37       576.768 DT     0080 Rx 0  
     38       580.759 DT     0080 Rx 0  
     39       584.746 DT     0080 Rx 0  
     40       588.734 DT     0080 Rx 0  
     41       592.725 DT     0080 Rx 0  
     42       596.715 DT     0080 Rx 0  
     43       600.703 DT     0080 Rx 0  
     44       604.693 DT     0080 Rx 0  
     45       608.684 DT     0080 Rx 0  
     46       612.672 DT     0080 Rx 0  
     47       616.662 DT     0080 Rx 0  
     48       620.653 DT     0080 Rx 0  
     49       624.644 DT     0080 Rx 0  
     50       628.631 DT     0080 Rx 0  
     51       632.622 DT     0080 Rx 0  
     52       636.612 DT     0080 Rx 0  
     53       640.600 DT     0080 Rx 0  
     54       644.591 DT     0080 Rx 0  
     55       648.579 DT     0080 Rx 0  
     56       652.567 DT     0080 Rx 0  
     57       656.557 DT     0080 Rx 0  
     58       660.548 DT     0080 Rx 0  
     59       664.538 DT     0080 Rx 0  
     60       668.525 DT     0080 Rx 0  
     61       672.516 DT     0080 Rx 0  
     62       676.506 DT     0080 Rx 0  
     63       680.497 DT     0080 Rx 0  
     64       684.485 DT     0080 Rx 0  
     65       688.476 DT     0080 Rx 0  
     66       692.466 DT     0080 Rx 0  
     67       696.457 DT     0080 Rx 0  
     68       700.445 DT     0080 Rx 0  
     69       704.436 DT     0080 Rx 0  
     70       708.424 DT     0080 Rx 0  
     71       712.416 DT     0080 Rx 0  
     72       716.404 DT     0080 Rx 0  
     73       720.394 DT     0080 Rx 0  
     74       724.383 DT     0080 Rx 0  
     75       728.373 DT     0080 Rx 0  
     76       732.364 DT     0080 Rx 0  
     77       736.354 DT     0080 Rx 0  
     78       740.342 DT     0080 Rx 0  
     79       744.332 DT     0080 Rx 0  
     80       748.323 DT     0080 Rx 0  
     81       752.314 DT     0080 Rx 0  
     82       756.304 DT     0080 Rx 0  
     83       760.295 DT     0080 Rx 0  
     84       764.284 DT     0080 Rx 0  
     85       768.276 DT     0080 Rx 0  
     86       772.266 DT     0080 Rx 0  
     87       776.255 DT     0080 Rx 0  
     88       780.244 DT     0080 Rx 0  
     89       784.237 DT     0080 Rx 0  
     90       788.227 DT     0080 Rx 0  
     91       792.218 DT     0080 Rx 0  
     92       796.208 DT     0080 Rx 0  
     93       800.198 DT     0080 Rx 0  
     94       804.189 DT     0080 Rx 0  
     95       808.179 DT     0080 Rx 0  
     96       812.168 DT     0080 Rx 0  
     97       816.158 DT     0080 Rx 0  
     98       820.150 DT     0080 Rx 0  
     99       824.140 DT     0080 Rx 0  
    100       828.128 DT     0080 Rx 0  
    101       832.119 DT     0080 Rx 0  
    102       836.110 DT     0080 Rx 0  
    103       840.100 DT     0080 Rx 0  
    104       844.090 DT     0080 Rx 0  
    105       848.080 DT     0080 Rx 0  
    106       852.070 DT     0080 Rx 0  
    107       856.061 DT     0080 Rx 0  
    108       860.051 DT     0080 Rx 0  
    109       864.040 DT     0080 Rx 0  
    110       868.031 DT     0080 Rx 0  
    111       872.022 DT     0080 Rx 0  
    112       876.010 DT     0080 Rx 0  
    113       880.000 DT     0080 Rx 0  
    114       883.990 DT     0080 Rx 0  
    115       887.981 DT     0080 Rx 0  
    116       891.972 DT     0080 Rx 0  
    117       895.961 DT     0080 Rx 0  
    118       899.953 DT     0080 Rx 0  
    119       903.942 DT     0080 Rx 0  
    120       907.935 DT     0080 Rx 0  
    121       911.923 DT     0080 Rx 0  
    122       915.914 DT     0080 Rx 0  
    123       919.904 DT     0080 Rx 0  
    124       923.893 DT     0080 Rx 0  
    125       927.885 DT     0080 Rx 0  
    126       931.873 DT     0080 Rx 0  
    127       935.863 DT     0080 Rx 0  
    128       939.854 DT     0080 Rx 0  
    129       943.845 DT     0080 Rx 0  
    130       947.834 DT     0080 Rx 0  
    131       951.823 DT     0080 Rx 0  
    132       955.813 DT     0080 Rx 0  
    133       959.804 DT     0080 Rx 0  
    134       963.794 DT     0080 Rx 0  
    135       967.785 DT     0080 Rx 0  
    136       971.773 DT     0080 Rx 0  
    137       975.764 DT     0080 Rx 0  
    138       979.752 DT     0080 Rx 0  
    139       983.744 DT     0080 Rx 0  
    140       987.732 DT     0080 Rx 0  
    141       991.724 DT     0080 Rx 0  
    142       995.712 DT     0080 Rx 0  
    143       999.702 DT     0080 Rx 0  
    144      1003.692 DT     0080 Rx 0  
    145      1007.680 DT     0080 Rx 0  
    146      1011.670 DT     0080 Rx 0  
    147      1015.661 DT     0080 Rx 0  
    148      1019.648 DT     0080 Rx 0  
    149      1023.639 DT     0080 Rx 0  
    150      1027.629 DT     0080 Rx 0  
    151      1031.620 DT     0080 Rx 0  
    152      1035.610 DT     0080 Rx 0  
    153      1039.600 DT     0080 Rx 0  
    154      1043.590 DT     0080 Rx 0  
    155      1047.579 DT     0080 Rx 0  
    156      1051.571 DT     0080 Rx 0  
    157      1055.560 DT     0080 Rx 0  
    158      1059.551 DT     0080 Rx 0  
    159      1063.542 DT     0080 Rx 0  
    160      1067.533 DT     0080 Rx 0  
    161      1071.521 DT     0080 Rx 0  
    162      1075.511 DT     0080 Rx 0  
    163      1079.502 DT     0080 Rx 0  
    164      1083.490 DT     0080 Rx 0  
    165      1087.480 DT     0080 Rx 0  
    166      1091.471 DT     0080 Rx 0  
    167      1095.461 DT     0080 Rx 0  
    168      1099.450 DT     0080 Rx 0  
    169      1103.442 DT     0080 Rx 0  
    170      1107.429 DT     0080 Rx 0  
    171      1111.419 DT     0080 Rx 0  
    172      1115.410 DT     0080 Rx 0  
    173      1119.399 DT     0080 Rx 0  
    174      1123.391 DT     0080 Rx 0  
    175      1127.379 DT     0080 Rx 0  
    176      1131.368 DT     0080 Rx 0  
    177      1135.359 DT     0080 Rx 0  
    178      1139.348 DT     0080 Rx 0  
    179      1143.338 DT     0080 Rx 0  
    180      1147.328 DT     0080 Rx 0  
    181      1151.318 DT     0080 Rx 0  
    182      1155.308 DT     0080 Rx 0  
    183      1159.297 DT     0080 Rx 0  
    184      1163.287 DT     0080 Rx 0  
    185      1167.278 DT     0080 Rx 0  
    186      1171.268 DT     0080 Rx 0  
    187      1175.260 DT     0080 Rx 0  
    188      1179.249 DT     0080 Rx 0  
    189      1183.239 DT     0080 Rx 0  
    190      1187.228 DT     0080 Rx 0  
    191      1191.220 DT     0080 Rx 0  
    192      1195.209 DT     0080 Rx 0  
    193      1199.201 DT     0080 Rx 0  
    194      1203.192 DT     0080 Rx 0  
    195      1207.181 DT     0080 Rx 0  
    196      1211.172 DT     0080 Rx 0  
    197      1215.162 DT     0080 Rx 0  
    198      1219.152 DT     0080 Rx 0  
    199      1223.142 DT     0080 Rx 0  
    200      1227.130 DT     0080 Rx 0  
    201      1231.120 DT     0080 Rx 0  
    202      1235.108 DT     0080 Rx 0  
    203      1239.096 DT     0080 Rx 0  
    204      1243.086 DT     0080 Rx 0  
    205      1247.077 DT     0080 Rx 0  
    206      1251.065 DT     0080 Rx 0  
    207      1255.056 DT     0080 Rx 0  
    208      1259.044 DT     0080 Rx 0  
    209      1263.035 DT     0080 Rx 0  
    210      1267.021 DT     0080 Rx 0  
    211      1271.008 DT     0080 Rx 0  
    212      1274.999 DT     0080 Rx 0  
    213      1278.990 DT     0080 Rx 0  
    214      1282.980 DT     0080 Rx 0  
    215      1286.967 DT     0080 Rx 0  
    216      1290.957 DT     0080 Rx 0  
    217      1294.947 DT     0080 Rx 0  
    218      1298.935 DT     0080 Rx 0  
    219      1302.925 DT     0080 Rx 0  
    220      1306.912 DT     0080 Rx 0  
    221      1310.903 DT     0080 Rx 0  
    222      1314.892 DT     0080 Rx 0  
    223      1318.881 DT     0080 Rx 0  
    224      1322.870 DT     0080 Rx 0  
    225      1326.861 DT     0080 Rx 0  
    226      1330.849 DT     0080 Rx 0  
    227      1334.839 DT     0080 Rx 0  
    228      1338.828 DT     0080 Rx 0  
    229      1342.817 DT     0080 Rx 0  
    230      1346.805 DT     0080 Rx 0  
    231      1350.797 DT     0080 Rx 0  
    232      1354.786 DT     0080 Rx 0  
    233      1358.773 DT     0080 Rx 0  
    234      1362.763 DT     0080 Rx 0  
    235      1366.754 DT     0080 Rx 0  
    236      1370.745 DT     0080 Rx 0  
    237      1374.733 DT     0080 Rx 0  
    238      1378.723 DT     0080 Rx 0  
    239      1382.715 DT     0080 Rx 0  
    240      1386.702 DT     0080 Rx 0  
    241      1390.691 DT     0080 Rx 0  
    242      1394.680 DT     0080 Rx 0  
    243      1398.672 DT     0080 Rx 0  
    244      1402.663 DT     0080 Rx 0  
    245      1406.650 DT     0080 Rx 0  
    246      1410.642 DT     0080 Rx 0  
    247      1414.631 DT     0080 Rx 0  
    248      1418.621 DT     0080 Rx 0  
    249      1422.611 DT     0080 Rx 0  
    250      1426.602 DT     0080 Rx 0  
    251      1430.592 DT     0080 Rx 0  
    252      1434.582 DT     0080 Rx 0  
    253      1438.573 DT     0080 Rx 0  
    254      1442.561 DT     0080 Rx 0  
    255      1446.551 DT     0080 Rx 0  
    256      1450.541 DT     0080 Rx 0  
    257      1454.431 DT     0080 Rx 0  
    258      1458.421 DT     0080 Rx 0  
    259      1462.412 DT     0080 Rx 0  
    260      1466.402 DT     0080 Rx 0  
    261      1470.392 DT     0080 Rx 0  
    262      1474.383 DT     0080 Rx 0  
    263      1478.373 DT     0080 Rx 0  
    264      1482.362 DT     0080 Rx 0  
    265      1486.353 DT     0080 Rx 0  
    266      1490.342 DT     0080 Rx 0  
    267      1494.332 DT     0080 Rx 0  
    268      1498.321 DT     0080 Rx 0  
    269      1502.312 DT     0080 Rx 0  
    270      1506.300 DT     0080 Rx 0  
    271      1510.290 DT     0080 Rx 0  
    272      1514.280 DT     0080 Rx 0  
    273      1518.271 DT     0080 Rx 0  
    274      1522.259 DT     0080 Rx 0  
    275      1526.250 DT     0080 Rx 0  
    276      1530.239 DT     0080 Rx 0  
    277      1534.230 DT     0080 Rx 0  
    278      1538.218 DT     0080 Rx 0  
    279      1542.210 DT     0080 Rx 0  
    280      1546.200 DT     0080 Rx 0  
    281      1550.190 DT     0080 Rx 0  
    282      1554.177 DT     0080 Rx 0  
    283      1558.167 DT     0080 Rx 0  
    284      1562.158 DT     0080 Rx 0  
    285      1566.149 DT     0080 Rx 0  
    286      1570.137 DT     0080 Rx 0  
    287      1574.128 DT     0080 Rx 0  
    288      1578.116 DT     0080 Rx 0  
    289      1582.107 DT     0080 Rx 0  
    290      1586.097 DT     0080 Rx 0  
    291      1590.085 DT     0080 Rx 0  
    292      1594.074 DT     0080 Rx 0  
    293      1598.065 DT     0080 Rx 0  
    294      1602.054 DT     0080 Rx 0  
    295      1606.044 DT     0080 Rx 0  
    296      1610.035 DT     0080 Rx 0  
    297      1614.026 DT     0080 Rx 0  
    298      1618.017 DT     0080 Rx 0  
    299      1622.005 DT     0080 Rx 0  
    300      1625.994 DT     0080 Rx 0  
    301      1629.986 DT     0080 Rx 0  
    302      1633.976 DT     0080 Rx 0  
    303      1637.967 DT     0080 Rx 0  
    304      1641.955 DT     0080 Rx 0  
    305      1645.943 DT     0080 Rx 0  
    306      1649.935 DT     0080 Rx 0  
    307      1653.925 DT     0080 Rx 0  
    308      1657.912 DT     0080 Rx 0  
    309      1661.904 DT     0080 Rx 0  
    310      1665.893 DT     0080 Rx 0  
    311      1669.881 DT     0080 Rx 0  
    312      1673.872 DT     0080 Rx 0  
    313      1677.860 DT     0080 Rx 0  
    314      1681.850 DT     0080 Rx 0  
    315      1685.839 DT     0080 Rx 0  
    316      1689.828 DT     0080 Rx 0  
    317      1693.819 DT     0080 Rx 0  
    318      1697.806 DT     0080 Rx 0  
    319      1701.797 DT     0080 Rx 0  
    320      1705.785 DT     0080 Rx 0  
    321      1709.776 DT     0080 Rx 0  
    322      1713.763 DT     0080 Rx 0  
    323      1717.754 DT     0080 Rx 0  
    324      1721.742 DT     0080 Rx 0  
    325      1725.733 DT     0080 Rx 0  
    326      1729.721 DT     0080 Rx 0  
    327      1733.713 DT     0080 Rx 0  
    328      1737.701 DT     0080 Rx 0  
    329      1741.691 DT     0080 Rx 0  
    330      1745.677 DT     0080 Rx 0  
    331      1749.666 DT     0080 Rx 0  
    332      1753.656 DT     0080 Rx 0  
    333      1757.644 DT     0080 Rx 0  
    334      1761.635 DT     0080 Rx 0  
    335      1765.624 DT     0080 Rx 0  
    336      1769.612 DT     0080 Rx 0  
    337      1773.603 DT     0080 Rx 0  
    338      1777.593 DT     0080 Rx 0  
    339      1781.581 DT     0080 Rx 0  
    340      1785.569 DT     0080 Rx 0  
    341      1789.560 DT     0080 Rx 0  
    342      1793.548 DT     0080 Rx 0  
    343      1797.539 DT     0080 Rx 0  
    344      1801.527 DT     0080 Rx 0  
    345      1805.518 DT     0080 Rx 0  
    346      1809.506 DT     0080 Rx 0  
    347      1813.496 DT     0080 Rx 0  
    348      1817.486 DT     0080 Rx 0  
    349      1821.477 DT     0080 Rx 0  
    350      1825.465 DT     0080 Rx 0  
    351      1829.456 DT     0080 Rx 0  
    352      1833.445 DT     0080 Rx 0  
    353      1837.434 DT     0080 Rx 0  
    354      1841.425 DT     0080 Rx 0  
    355      1845.414 DT     0080 Rx 0  
    356      1849.402 DT     0080 Rx 0  
    357      1853.393 DT     0080 Rx 0  
    358      1857.382 DT     0080 Rx 0  
    359      1861.373 DT     0080 Rx 0  
    360      1865.361 DT     0080 Rx 0  
    361      1869.351 DT     0080 Rx 0  
    362      1873.343 DT     0080 Rx 0  
    363      1877.333 DT     0080 Rx 0  
    364      1881.324 DT     0080 Rx 0  
    365      1885.314 DT     0080 Rx 0  
    366      1889.303 DT     0080 Rx 0  
    367      1893.291 DT     0080 Rx 0  
    368      1897.282 DT     0080 Rx 0  
    369      1901.270 DT     0080 Rx 0  
    370      1905.263 DT     0080 Rx 0  
    371      1909.250 DT     0080 Rx 0  
    372      1913.241 DT     0080 Rx 0  
    373      1917.231 DT     0080 Rx 0  
    374      1921.221 DT     0080 Rx 0  
    375      1925.211 DT     0080 Rx 0  
    376      1929.199 DT     0080 Rx 0  
    377      1933.191 DT     0080 Rx 0  
    378      1937.180 DT     0080 Rx 0  
    379      1941.173 DT     0080 Rx 0  
    380      1945.161 DT     0080 Rx 0  
    381      1949.152 DT     0080 Rx 0  
    382      1953.143 DT     0080 Rx 0  
    383      1957.133 DT     0080 Rx 0  
    384      1961.123 DT     0080 Rx 0  
    385      1965.114 DT     0080 Rx 0  
    386      1969.102 DT     0080 Rx 0  
    387      1973.093 DT     0080 Rx 0  
    388      1977.083 DT     0080 Rx 0  
    389      1981.070 DT     0080 Rx 0  
    390      1985.061 DT     0080 Rx 0  
    391      1989.051 DT     0080 Rx 0  
    392      1993.042 DT     0080 Rx 0  
    393      1997.031 DT     0080 Rx 0  
    394      2001.022 DT     0080 Rx 0  
    395      2005.010 DT     0080 Rx 0  
    396      2009.000 DT     0080 Rx 0  
    397      2012.990 DT     0080 Rx 0  
    398      2016.978 DT     0080 Rx 0  
    399      2020.970 DT     0080 Rx 0  
    400      2024.960 DT     0080 Rx 0  
    401      2028.947 DT     0080 Rx 0  
    402      2032.935 DT     0080 Rx 0  
    403      2036.926 DT     0080 Rx 0  
    404      2040.916 DT     0080 Rx 0  
    405      2044.906 DT     0080 Rx 0  
    406      2048.896 DT     0080 Rx 0  
    407      2052.885 DT     0080 Rx 0  
    408      2056.875 DT     0080 Rx 0  
    409      2060.865 DT     0080 Rx 0  
    410      2064.855 DT     0080 Rx 0  
    411      2068.843 DT     0080 Rx 0  
    412      2072.835 DT     0080 Rx 0  
    413      2076.823 DT     0080 Rx 0  
    414      2080.811 DT     0080 Rx 0  
    415      2084.801 DT     0080 Rx 0  
    416      2088.791 DT     0080 Rx 0  
    417      2092.781 DT     0080 Rx 0  
    418      2096.769 DT     0080 Rx 0  
    419      2100.758 DT     0080 Rx 0  
    420      2104.746 DT     0080 Rx 0  
    421      2108.736 DT     0080 Rx 0  
    422      2112.727 DT     0080 Rx 0  
    423      2116.717 DT     0080 Rx 0  
    424      2120.706 DT     0080 Rx 0  
    425      2124.694 DT     0080 Rx 0  
    426      2128.684 DT     0080 Rx 0  
    427      2132.671 DT     0080 Rx 0  
    428      2136.660 DT     0080 Rx 0  
    429      2140.650 DT     0080 Rx 0  
    430      2144.639 DT     0080 Rx 0  
    431      2148.630 DT     0080 Rx 0  
    432      2152.620 DT     0080 Rx 0  
    433      2156.610 DT     0080 Rx 0  
    434      2160.599 DT     0080 Rx 0  
    435      2164.589 DT     0080 Rx 0  
    436      2168.577 DT     0080 Rx 0  
    437      2172.565 DT     0080 Rx 0  
    438      2176.556 DT     0080 Rx 0  
    439      2180.544 DT     0080 Rx 0  
    440      2184.531 DT     0080 Rx 0  
    441      2188.519 DT     0080 Rx 0  
    442      2192.510 DT     0080 Rx 0  
    443      2196.501 DT     0080 Rx 0  
    444      2200.489 DT     0080 Rx 0  
    445      2204.479 DT     0080 Rx 0  
    446      2208.468 DT     0080 Rx 0  
    447      2212.457 DT     0080 Rx 0  
    448      2216.447 DT     0080 Rx 0  
    449      2220.437 DT     0080 Rx 0  
    450      2224.425 DT     0080 Rx 0  
    451      2228.415 DT     0080 Rx 0  
    452      2232.404 DT     0080 Rx 0  
    453      2236.395 DT     0080 Rx 0  
    454      2240.384 DT     0080 Rx 0  
    455      2244.374 DT     0080 Rx 0  
    456      2248.363 DT     0080 Rx 0  
    457      2252.353 DT     0080 Rx 0  
    458      2256.339 DT     0080 Rx 0  
    459      2260.329 DT     0080 Rx 0  
    460      2264.318 DT     0080 Rx 0  
    461      2268.308 DT     0080 Rx 0  
    462      2272.296 DT     0080 Rx 0  
    463      2276.284 DT     0080 Rx 0  
    464      2280.274 DT     0080 Rx 0  
    465      2284.263 DT     0080 Rx 0  
    466      2288.253 DT     0080 Rx 0  
    467      2292.241 DT     0080 Rx 0  
    468      2296.227 DT     0080 Rx 0  
    469      2300.218 DT     0080 Rx 0  
    470      2304.206 DT     0080 Rx 0  
    471      2308.195 DT     0080 Rx 0  
    472      2312.184 DT     0080 Rx 0  
    473      2316.175 DT     0080 Rx 0  
    474      2320.164 DT     0080 Rx 0  
    475      2324.152 DT     0080 Rx 0  
    476      2328.142 DT     0080 Rx 0  
    477      2332.129 DT     0080 Rx 0  
    478      2336.120 DT     0080 Rx 0  
    479      2340.111 DT     0080 Rx 0  
    480      2344.099 DT     0080 Rx 0  
    481      2348.089 DT     0080 Rx 0  
    482      2352.078 DT     0080 Rx 0  
    483      2356.069 DT     0080 Rx 0  
    484      2360.057 DT     0080 Rx 0  
    485      2364.048 DT     0080 Rx 0  
    486      2368.035 DT     0080 Rx 0  
    487      2372.026 DT     0080 Rx 0  
    488      2376.013 DT     0080 Rx 0  
    489      2380.005 DT     0080 Rx 0  
    490      2383.993 DT     0080 Rx 0  
    491      2387.982 DT     0080 Rx 0  
    492      2391.970 DT     0080 Rx 0  
    493      2395.960 DT     0080 Rx 0  
    494      2399.950 DT     0080 Rx 0  
    495      2403.937 DT     0080 Rx 0  
    496      2407.928 DT     0080 Rx 0  
    497      2411.917 DT     0080 Rx 0  
    498      2415.905 DT     0080 Rx 0  
    499      2419.895 DT     0080 Rx 0  
    500      2423.883 DT     0080 Rx 0  
    501      2427.874 DT     0080 Rx 0  
    502      2431.862 DT     0080 Rx 0  
    503      2435.853 DT     0080 Rx 0  
    504      2439.841 DT     0080 Rx 0  
    505      2443.832 DT     0080 Rx 0  
    506      2447.819 DT     0080 Rx 0  
    507      2451.810 DT     0080 Rx 0  
    508      2455.696 DT     0080 Rx 0  
    509      2459.687 DT     0080 Rx 0  
    510      2463.675 DT     0080 Rx 0  
    511      2467.666 DT     0080 Rx 0  
    512      2471.654 DT     0080 Rx 0  
    513      2475.645 DT     0080 Rx 0  
    514      2479.634 DT     0080 Rx 0  
    515      2483.621 DT     0080 Rx 0  
    516      2487.608 DT     0080 Rx 0  
    517      2491.599 DT     0080 Rx 0  
    518      2495.587 DT     0080 Rx 0  
    519      2499.578 DT     0080 Rx 0  
    520      2503.565 DT     0080 Rx 0  
    521      2507.555 DT     0080 Rx 0  
    522      2511.545 DT     0080 Rx 0  
    523      2515.532 DT     0080 Rx 0  
    524      2519.523 DT     0080 Rx 0  
    525      2523.511 DT     0080 Rx 0  
    526      2527.501 DT     0080 Rx 0  
    527      2531.489 DT     0080 Rx 0  
    528      2535.479 DT     0080 Rx 0  
    529      2539.468 DT     0080 Rx 0  
    530      2543.458 DT     0080 Rx 0  
    531      2547.447 DT     0080 Rx 0  
    532      2551.436 DT     0080 Rx 0  
    533      2555.425 DT     0080 Rx 0  
    534      2559.416 DT     0080 Rx 0  
    535      2563.403 DT     0080 Rx 0  
    536      2567.394 DT     0080 Rx 0  
    537      2571.382 DT     0080 Rx 0  
    538      2575.372 DT     0080 Rx 0  
    539      2579.361 DT     0080 Rx 0  
    540      2583.351 DT     0080 Rx 0  
    541      2587.341 DT     0080 Rx 0  
    542      2591.329 DT     0080 Rx 0  
    543      2595.319 DT     0080 Rx 0  
    544      2599.310 DT     0080 Rx 0  
    545      2603.298 DT     0080 Rx 0  
    546      2607.288 DT     0080 Rx 0  
    547      2611.278 DT     0080 Rx 0  
    548      2615.266 DT     0080 Rx 0  
    549      2619.257 DT     0080 Rx 0  
    550      2623.245 DT     0080 Rx 0  
    551      2627.233 DT     0080 Rx 0  
    552      2631.226 DT     0080 Rx 0  
    553      2635.215 DT     0080 Rx 0  
    554      2639.205 DT     0080 Rx 0  
    555      2643.193 DT     0080 Rx 0  
    556      2647.181 DT     0080 Rx 0  
    557      2651.171 DT     0080 Rx 0  
    558      2655.162 DT     0080 Rx 0  
    559      2659.152 DT     0080 Rx 0  
    560      2663.140 DT     0080 Rx 0  
    561      2667.131 DT     0080 Rx 0  
    562      2671.121 DT     0080 Rx 0  
    563      2675.109 DT     0080 Rx 0  
    564      2679.097 DT     0080 Rx 0  
    565      2683.088 DT     0080 Rx 0  
    566      2687.076 DT     0080 Rx 0  
    567      2691.069 DT     0080 Rx 0  
    568      2695.057 DT     0080 Rx 0  
    569      2699.047 DT     0080 Rx 0  
    570      2703.036 DT     0080 Rx 0  
    571      2707.027 DT     0080 Rx 0  
    572      2711.016 DT     0080 Rx 0  
    573      2715.003 DT     0080 Rx 0  
    574      2718.994 DT     0080 Rx 0  
    575      2722.986 DT     0080 Rx 0  
    576      2726.973 DT     0080 Rx 0  
    577      2730.964 DT     0080 Rx 0  
    578      2734.953 DT     0080 Rx 0  
    579      2738.943 DT     0080 Rx 0  
    580      2742.932 DT     0080 Rx 0  
    581      2746.920 DT     0080 Rx 0  
    582      2750.910 DT     0080 Rx 0  
    583      2754.900 DT     0080 Rx 0  
    584      2758.889 DT     0080 Rx 0  
    585      2762.878 DT     0080 Rx 0  
    586      2766.868 DT     0080 Rx 0  
    587      2770.856 DT     0080 Rx 0  
    588      2774.844 DT     0080 Rx 0  
    589      2778.834 DT     0080 Rx 0  
    590      2782.824 DT     0080 Rx 0  
    591      2786.811 DT     0080 Rx 0  
    592      2790.801 DT     0080 Rx 0  
    593      2794.789 DT     0080 Rx 0  
    594      2798.779 DT     0080 Rx 0  
    595      2802.766 DT     0080 Rx 0  
    596      2806.756 DT     0080 Rx 0  
    597      2810.745 DT     0080 Rx 0  
    598      2814.735 DT     0080 Rx 0  
    599      2818.723 DT     0080 Rx 0  
    600      2822.712 DT     0080 Rx 0  
    601      2826.702 DT     0080 Rx 0  
    602      2830.691 DT     0080 Rx 0  
    603      2834.682 DT     0080 Rx 0  
    604      2838.670 DT     0080 Rx 0  
    605      2842.659 DT     0080 Rx 0  
    606      2846.649 DT     0080 Rx 0  
    607      2850.639 DT     0080 Rx 0  
    608      2854.627 DT     0080 Rx 0  
    609      2858.615 DT     0080 Rx 0  
    610      2862.606 DT     0080 Rx 0  
    611      2866.594 DT     0080 Rx 0  
    612      2870.584 DT     0080 Rx 0  
    613      2874.574 DT     0080 Rx 0  
    614      2878.563 DT     0080 Rx 0  
    615      2882.552 DT     0080 Rx 0  
    616      2886.540 DT     0080 Rx 0  
    617      2890.530 DT     0080 Rx 0  
    618      2894.518 DT     0080 Rx 0  
    619      2898.509 DT     0080 Rx 0  
    620      2902.500 DT     0080 Rx 0  
    621      2906.490 DT     0080 Rx 0  
    622      2910.478 DT     0080 Rx 0  
    623      2914.468 DT     0080 Rx 0  
    624      2918.457 DT     0080 Rx 0  
    625      2922.448 DT     0080 Rx 0  
    626      2926.438 DT     0080 Rx 0  
    627      2930.425 DT     0080 Rx 0  
    628      2934.417 DT     0080 Rx 0  
    629      2938.405 DT     0080 Rx 0  
    630      2942.394 DT     0080 Rx 0  
    631      2946.381 DT     0080 Rx 0  
    632      2950.370 DT     0080 Rx 0  
    633      2954.361 DT     0080 Rx 0  
    634      2958.350 DT     0080 Rx 0  
    635      2962.338 DT     0080 Rx 0  
    636      2966.326 DT     0080 Rx 0  
    637      2970.317 DT     0080 Rx 0  
    638      2974.305 DT     0080 Rx 0  
    639      2978.293 DT     0080 Rx 0  
    640      2982.280 DT     0080 Rx 0  
    641      2986.270 DT     0080 Rx 0  
    642      2990.261 DT     0080 Rx 0  
    643      2994.249 DT     0080 Rx 0  
    644      2998.239 DT     0080 Rx 0  
    645      3002.229 DT     0080 Rx 0  
    646      3006.219 DT     0080 Rx 0  
    647      3010.210 DT     0080 Rx 0  
    648      3014.199 DT     0080 Rx 0  
    649      3018.190 DT     0080 Rx 0  
    650      3022.180 DT     0080 Rx 0  
    651      3026.171 DT     0080 Rx 0  
    652      3030.160 DT     0080 Rx 0  
    653      3034.149 DT     0080 Rx 0  
    654      3038.139 DT     0080 Rx 0  
    655      3042.130 DT     0080 Rx 0  
    656      3046.119 DT     0080 Rx 0  
    657      3050.110 DT     0080 Rx 0  
    658      3054.102 DT     0080 Rx 0  
    659      3058.092 DT     0080 Rx 0  
    660      3062.082 DT     0080 Rx 0  
    661      3066.072 DT     0080 Rx 0  
    662      3070.061 DT     0080 Rx 0  
    663      3074.049 DT     0080 Rx 0  
    664      3078.041 DT     0080 Rx 0  
    665      3082.029 DT     0080 Rx 0  
    666      3086.020 DT     0080 Rx 0  
    667      3090.009 DT     0080 Rx 0  
    668      3094.001 DT     0080 Rx 0  
    669      3097.989 DT     0080 Rx 0  
    670      3101.979 DT     0080 Rx 0  
    671      3105.967 DT     0080 Rx 0  
    672      3109.955 DT     0080 Rx 0  
    673      3113.947 DT     0080 Rx 0  
    674      3117.937 DT     0080 Rx 0  
    675      3121.927 DT     0080 Rx 0  
    676      3125.917 DT     0080 Rx 0  
    677      3129.907 DT     0080 Rx 0  
    678      3133.895 DT     0080 Rx 0  
    679      3137.885 DT     0080 Rx 0  
    680      3141.875 DT     0080 Rx 0  
    681      3145.863 DT     0080 Rx 0  
    682      3149.853 DT     0080 Rx 0  
    683      3153.843 DT     0080 Rx 0  
    684      3157.833 DT     0080 Rx 0  
    685      3161.821 DT     0080 Rx 0  
    686      3165.810 DT     0080 Rx 0  
    687      3169.800 DT     0080 Rx 0  
    688      3173.788 DT     0080 Rx 0  
    689      3177.780 DT     0080 Rx 0  
    690      3181.771 DT     0080 Rx 0  
    691      3185.759 DT     0080 Rx 0  
    692      3189.748 DT     0080 Rx 0  
    693      3193.739 DT     0080 Rx 0  
    694      3197.727 DT     0080 Rx 0  
    695      3201.719 DT     0080 Rx 0  
    696      3205.709 DT     0080 Rx 0  
    697      3209.698 DT     0080 Rx 0  
    698      3213.687 DT     0080 Rx 0  
    699      3217.677 DT     0080 Rx 0  
    700      3221.669 DT     0080 Rx 0  
    701      3225.656 DT     0080 Rx 0  
    702      3229.648 DT     0080 Rx 0  
    703      3233.636 DT     0080 Rx 0  
    704      3237.627 DT     0080 Rx 0  
    705      3241.617 DT     0080 Rx 0  
    706      3245.605 DT     0080 Rx 0  
    707      3249.595 DT     0080 Rx 0  
    708      3253.584 DT     0080 Rx 0  
    709      3257.576 DT     0080 Rx 0  
    710      3261.563 DT     0080 Rx 0  
    711      3265.554 DT     0080 Rx 0  
    712      3269.544 DT     0080 Rx 0  
    713      3273.534 DT     0080 Rx 0  
    714      3277.524 DT     0080 Rx 0  
    715      3281.516 DT     0080 Rx 0  
    716      3285.506 DT     0080 Rx 0  
    717      3289.497 DT     0080 Rx 0  
    718      3293.486 DT     0080 Rx 0  
    719      3297.477 DT     0080 Rx 0  
    720      3301.467 DT     0080 Rx 0  
    721      3305.456 DT     0080 Rx 0  
    722      3309.447 DT     0080 Rx 0  
    723      3313.436 DT     0080 Rx 0  
    724      3317.424 DT     0080 Rx 0  
    725      3321.415 DT     0080 Rx 0  
    726      3325.406 DT     0080 Rx 0  
    727      3329.395 DT     0080 Rx 0  
    728      3333.385 DT     0080 Rx 0  
    729      3337.376 DT     0080 Rx 0  
    730      3341.365 DT     0080 Rx 0  
    731      3345.355 DT     0080 Rx 0  
    732      3349.345 DT     0080 Rx 0  
    733      3353.335 DT     0080 Rx 0  
    734      3357.325 DT     0080 Rx 0  
    735      3361.316 DT     0080 Rx 0  
    736      3365.306 DT     0080 Rx 0  
    737      3369.297 DT     0080 Rx 0  
    738      3373.286 DT     0080 Rx 0  
    739      3377.278 DT     0080 Rx 0  
    740      3381.266 DT     0080 Rx 0  
    741      3385.257 DT     0080 Rx 0  
    742      3389.245 DT     0080 Rx 0  
    743      3393.236 DT     0080 Rx 0  
    744      3397.227 DT     0080 Rx 0  
    745      3401.217 DT     0080 Rx 0  
    746      3405.204 DT     0080 Rx 0  
    747      3409.194 DT     0080 Rx 0  
    748      3413.186 DT     0080 Rx 0  
    749      3417.176 DT     0080 Rx 0  
    750      3421.166 DT     0080 Rx 0  
    751      3425.156 DT     0080 Rx 0  
    752      3429.147 DT     0080 Rx 0  
    753      3433.138 DT     0080 Rx 0  
    754      3437.126 DT     0080 Rx 0  
    755      3441.116 DT     0080 Rx 0  
    756      3445.106 DT     0080 Rx 0  
    757      3449.098 DT     0080 Rx 0  
    758      3452.987 DT     0080 Rx 0  
    759      3456.976 DT     0080 Rx 0  
    760      3460.969 DT     0080 Rx 0  
    761      3464.959 DT     0080 Rx 0  
    762      3468.950 DT     0080 Rx 0  
    763      3472.937 DT     0080 Rx 0  
    764      3476.927 DT     0080 Rx 0  
    765      3480.917 DT     0080 Rx 0  
    766      3484.906 DT     0080 Rx 0  
    767      3488.897 DT     0080 Rx 0  
    768      3492.885 DT     0080 Rx 0  
    769      3496.877 DT     0080 Rx 0  
    770      3500.866 DT     0080 Rx 0  
    771      3504.856 DT     0080 Rx 0  
    772      3508.846 DT     0080 Rx 0  
    773      3512.834 DT     0080 Rx 0  
    774      3516.825 DT     0080 Rx 0  
    775      3520.814 DT     0080 Rx 0  
    776      3524.804 DT     0080 Rx 0  
    777      3528.793 DT     0080 Rx 0  
    778      3532.782 DT     0080 Rx 0  
    779      3536.774 DT     0080 Rx 0  
    780      3540.764 DT     0080 Rx 0  
    781      3544.754 DT     0080 Rx 0  
    782      3548.742 DT     0080 Rx 0  
    783      3552.733 DT     0080 Rx 0  
    784      3556.721 DT     0080 Rx 0  
    785      3560.712 DT     0080 Rx 0  
    786      3564.699 DT     0080 Rx 0  
    787      3568.689 DT     0080 Rx 0  
    788      3572.678 DT     0080 Rx 0  
    789      3576.668 DT     0080 Rx 0  
    790      3580.656 DT     0080 Rx 0  
    791      3584.644 DT     0080 Rx 0  
    792      3588.635 DT     0080 Rx 0  
    793      3592.625 DT     0080 Rx 0  
    794      3596.613 DT     0080 Rx 0  
    795      3600.602 DT     0080 Rx 0  
    796      3604.593 DT     0080 Rx 0  
    797      3608.581 DT     0080 Rx 0  
    798      3612.572 DT     0080 Rx 0  
    799      3616.560 DT     0080 Rx 0  
    800      3620.548 DT     0080 Rx 0  
    801      3624.539 DT     0080 Rx 0  
    802      3628.527 DT     0080 Rx 0  
    803      3632.518 DT     0080 Rx 0  
    804      3636.506 DT     0080 Rx 0  
    805      3640.495 DT     0080 Rx 0  
    806      3644.486 DT     0080 Rx 0  
    807      3648.473 DT     0080 Rx 0  
    808      3652.463 DT     0080 Rx 0  
    809      3656.454 DT     0080 Rx 0  
    810      3660.443 DT     0080 Rx 0  
    811      3664.430 DT     0080 Rx 0  
    812      3668.420 DT     0080 Rx 0  
    813      3672.408 DT     0080 Rx 0  
    814      3676.400 DT     0080 Rx 0  
    815      3680.387 DT     0080 Rx 0  
    816      3684.377 DT     0080 Rx 0  
    817      3688.365 DT     0080 Rx 0  
    818      3692.355 DT     0080 Rx 0  
    819      3696.344 DT     0080 Rx 0  
    820      3700.334 DT     0080 Rx 0  
    821      3704.323 DT     0080 Rx 0  
    822      3708.310 DT     0080 Rx 0  
    823      3712.301 DT     0080 Rx 0  
    824      3716.288 DT     0080 Rx 0  
    825      3720.278 DT     0080 Rx 0  
    826      3724.267 DT     0080 Rx 0  
    827      3728.255 DT     0080 Rx 0  
    828      3732.246 DT     0080 Rx 0  
    829      3736.234 DT     0080 Rx 0  
    830      3740.225 DT     0080 Rx 0  
    831      3744.213 DT     0080 Rx 0  
    832      3748.203 DT     0080 Rx 0  
    833      3752.190 DT     0080 Rx 0  
    834      3756.180 DT     0080 Rx 0  
    835      3760.167 DT     0080 Rx 0  
    836      3764.156 DT     0080 Rx 0  
    837      3768.145 DT     0080 Rx 0  
    838      3772.135 DT     0080 Rx 0  
    839      3776.125 DT     0080 Rx 0  
    840      3780.114 DT     0080 Rx 0  
    841      3784.105 DT     0080 Rx 0  
    842      3788.093 DT     0080 Rx 0  
    843      3792.081 DT     0080 Rx 0  
    844      3796.068 DT     0080 Rx 0  
    845      3800.057 DT     0080 Rx 0  
    846      3804.048 DT     0080 Rx 0  
    847      3808.035 DT     0080 Rx 0  
    848      3812.023 DT     0080 Rx 0  
    849      3816.014 DT     0080 Rx 0  
    850      3820.002 DT     0080 Rx 0  
    851      3823.992 DT     0080 Rx 0  
    852      3827.983 DT     0080 Rx 0  
    853      3831.971 DT     0080 Rx 0  
    854      3835.963 DT     0080 Rx 0  
    855      3839.953 DT     0080 Rx 0  
    856      3843.943 DT     0080 Rx 0  
    857      3847.933 DT     0080 Rx 0  
    858      3851.924 DT     0080 Rx 0  
    859      3855.912 DT     0080 Rx 0  
    860      3859.902 DT     0080 Rx 0  
    861      3863.890 DT     0080 Rx 0  
    862      3867.880 DT     0080 Rx 0  
    863      3871.871 DT     0080 Rx 0  
    864      3875.858 DT     0080 Rx 0  
    865      3879.848 DT     0080 Rx 0  
    866      3883.839 DT     0080 Rx 0  
    867      3887.829 DT     0080 Rx 0  
    868      3891.816 DT     0080 Rx 0  
    869      3895.807 DT     0080 Rx 0  
    870      3899.796 DT     0080 Rx 0  
    871      3903.786 DT     0080 Rx 0  
    872      3907.777 DT     0080 Rx 0  
    873      3911.765 DT     0080 Rx 0  
    874      3915.755 DT     0080 Rx 0  
    875      3919.743 DT     0080 Rx 0  
    876      3923.737 DT     0080 Rx 0  
    877      3927.724 DT     0080 Rx 0  
    878      3931.715 DT     0080 Rx 0  
    879      3935.704 DT     0080 Rx 0  
    880      3939.694 DT     0080 Rx 0  
    881      3943.682 DT     0080 Rx 0  
    882      3947.672 DT     0080 Rx 0  
    883      3951.662 DT     0080 Rx 0  
    884      3955.653 DT     0080 Rx 0  
    885      3959.642 DT     0080 Rx 0  
    886      3963.632 DT     0080 Rx 0  
    887      3965.704 DT     0601 Rx 8  40 00 10 00 00 00 00 00 
    888      3965.927 DT     0581 Rx 8  43 00 10 00 92 01 06 00 
    889      3967.622 DT     0080 Rx 0  
    890      3971.611 DT     0080 Rx 0  
    891      3975.602 DT     0080 Rx 0  
    892      3979.590 DT     0080 Rx 0  
    893      3983.578 DT     0080 Rx 0  
    894      3987.566 DT     0080 Rx 0  
    895      3991.556 DT     0080 Rx 0  
    896      3995.547 DT     0080 Rx 0  
    897      3999.537 DT     0080 Rx 0  
    898      4003.527 DT     0080 Rx 0  
    899      4007.515 DT     0080 Rx 0  
    900      4011.506 DT     0080 Rx 0  
    901      4015.496 DT     0080 Rx 0  
    902      4019.487 DT     0080 Rx 0  
    903      4023.475 DT     0080 Rx 0  
    904      4023.599 DT     0601 Rx 8  40 00 10 00 00 00 00 00 
    905      4023.882 DT     0581 Rx 8  43 00 10 00 92 01 06 00 
    906      4027.463 DT     0080 Rx 0  
    907      4031.455 DT     0080 Rx 0  
    908      4031.574 DT     0601 Rx 8  2B 17 10 00 E8 03 01 00 
    909      4031.847 DT     0581 Rx 8  60 17 10 00 00 00 00 00 
    910      4031.911 DT     0701 Rx 1  7F 
    911      4035.443 DT     0080 Rx 0  
    912      4039.433 DT     0080 Rx 0  
    913      4039.555 DT     0601 Rx 8  2F 00 16 00 00 00 19 5F 
    914      4039.891 DT     0581 Rx 8  60 00 16 00 00 00 00 00 
    915      4043.423 DT     0080 Rx 0  
    916      4047.414 DT     0080 Rx 0  
    917      4051.402 DT     0080 Rx 0  
    918      4055.391 DT     0080 Rx 0  
    919      4059.381 DT     0080 Rx 0  
    920      4063.372 DT     0080 Rx 0  
    921      4067.363 DT     0080 Rx 0  
    922      4071.353 DT     0080 Rx 0  
    923      4075.344 DT     0080 Rx 0  
    924      4079.332 DT     0080 Rx 0  
    925      4083.323 DT     0080 Rx 0  
    926      4087.310 DT     0080 Rx 0  
    927      4091.301 DT     0080 Rx 0  
    928      4091.420 DT     0601 Rx 8  23 00 16 01 10 00 40 60 
    929      4091.657 DT     0581 Rx 8  60 00 16 01 00 00 00 00 
    930      4095.290 DT     0080 Rx 0  
    931      4099.281 DT     0080 Rx 0  
    932      4103.269 DT     0080 Rx 0  
    933      4107.259 DT     0080 Rx 0  
    934      4111.246 DT     0080 Rx 0  
    935      4115.236 DT     0080 Rx 0  
    936      4119.228 DT     0080 Rx 0  
    937      4123.215 DT     0080 Rx 0  
    938      4127.205 DT     0080 Rx 0  
    939      4131.194 DT     0080 Rx 0  
    940      4135.185 DT     0080 Rx 0  
    941      4139.173 DT     0080 Rx 0  
    942      4143.161 DT     0080 Rx 0  
    943      4147.148 DT     0080 Rx 0  
    944      4151.138 DT     0080 Rx 0  
    945      4151.258 DT     0601 Rx 8  23 00 16 01 10 00 40 60 
    946      4151.522 DT     0581 Rx 8  60 00 16 01 00 00 00 00 
    947      4155.129 DT     0080 Rx 0  
    948      4157.195 DT     0601 Rx 8  23 00 16 02 20 00 7A 60 
    949      4157.427 DT     0581 Rx 8  60 00 16 02 00 00 00 00 
    950      4159.116 DT     0080 Rx 0  
    951      4163.108 DT     0080 Rx 0  
    952      4167.095 DT     0080 Rx 0  
    953      4171.086 DT     0080 Rx 0  
    954      4175.073 DT     0080 Rx 0  
    955      4179.061 DT     0080 Rx 0  
    956      4183.051 DT     0080 Rx 0  
    957      4187.038 DT     0080 Rx 0  
    958      4191.029 DT     0080 Rx 0  
    959      4195.019 DT     0080 Rx 0  
    960      4199.007 DT     0080 Rx 0  
    961      4202.995 DT     0080 Rx 0  
    962      4206.986 DT     0080 Rx 0  
    963      4210.975 DT     0080 Rx 0  
    964      4214.965 DT     0080 Rx 0  
    965      4217.032 DT     0601 Rx 8  23 00 16 02 20 00 7A 60 
    966      4217.307 DT     0581 Rx 8  60 00 16 02 00 00 00 00 
    967      4218.951 DT     0080 Rx 0  
    968      4222.942 DT     0080 Rx 0  
    969      4223.063 DT     0601 Rx 8  2F 00 16 00 02 00 19 5F 
    970      4223.836 DT     0581 Rx 8  60 00 16 00 00 00 00 00 
    971      4226.930 DT     0080 Rx 0  
    972      4230.920 DT     0080 Rx 0  
    973      4234.910 DT     0080 Rx 0  
    974      4238.898 DT     0080 Rx 0  
    975      4242.889 DT     0080 Rx 0  
    976      4246.880 DT     0080 Rx 0  
    977      4250.867 DT     0080 Rx 0  
    978      4254.858 DT     0080 Rx 0  
    979      4258.850 DT     0080 Rx 0  
    980      4262.838 DT     0080 Rx 0  
    981      4266.831 DT     0080 Rx 0  
    982      4270.818 DT     0080 Rx 0  
    983      4272.887 DT     0601 Rx 8  2F 01 16 00 00 00 19 5F 
    984      4273.126 DT     0581 Rx 8  60 01 16 00 00 00 00 00 
    985      4274.810 DT     0080 Rx 0  
    986      4278.800 DT     0080 Rx 0  
    987      4282.790 DT     0080 Rx 0  
    988      4286.778 DT     0080 Rx 0  
    989      4290.768 DT     0080 Rx 0  
    990      4294.760 DT     0080 Rx 0  
    991      4298.750 DT     0080 Rx 0  
    992      4302.740 DT     0080 Rx 0  
    993      4306.728 DT     0080 Rx 0  
    994      4310.719 DT     0080 Rx 0  
    995      4314.709 DT     0080 Rx 0  
    996      4318.699 DT     0080 Rx 0  
    997      4322.690 DT     0080 Rx 0  
    998      4324.756 DT     0601 Rx 8  23 01 16 01 20 01 C1 60 
    999      4325.070 DT     0581 Rx 8  60 01 16 01 00 00 00 00 
   1000      4326.677 DT     0080 Rx 0  
   1001      4330.669 DT     0080 Rx 0  
   1002      4334.660 DT     0080 Rx 0  
   1003      4338.650 DT     0080 Rx 0  
   1004      4342.638 DT     0080 Rx 0  
   1005      4346.629 DT     0080 Rx 0  
   1006      4350.618 DT     0080 Rx 0  
   1007      4354.609 DT     0080 Rx 0  
   1008      4358.597 DT     0080 Rx 0  
   1009      4362.587 DT     0080 Rx 0  
   1010      4366.576 DT     0080 Rx 0  
   1011      4370.565 DT     0080 Rx 0  
   1012      4374.555 DT     0080 Rx 0  
   1013      4378.545 DT     0080 Rx 0  
   1014      4382.536 DT     0080 Rx 0  
   1015      4384.604 DT     0601 Rx 8  23 01 16 01 20 01 C1 60 
   1016      4384.940 DT     0581 Rx 8  60 01 16 01 00 00 00 00 
   1017      4386.525 DT     0080 Rx 0  
   1018      4390.516 DT     0080 Rx 0  
   1019      4390.633 DT     0601 Rx 8  23 01 16 02 20 02 C1 60 
   1020      4390.954 DT     0581 Rx 8  60 01 16 02 00 00 00 00 
   1021      4394.505 DT     0080 Rx 0  
   1022      4398.493 DT     0080 Rx 0  
   1023      4402.484 DT     0080 Rx 0  
   1024      4406.474 DT     0080 Rx 0  
   1025      4410.461 DT     0080 Rx 0  
   1026      4414.452 DT     0080 Rx 0  
   1027      4418.444 DT     0080 Rx 0  
   1028      4422.433 DT     0080 Rx 0  
   1029      4426.421 DT     0080 Rx 0  
   1030      4430.412 DT     0080 Rx 0  
   1031      4434.403 DT     0080 Rx 0  
   1032      4438.393 DT     0080 Rx 0  
   1033      4442.381 DT     0080 Rx 0  
   1034      4446.371 DT     0080 Rx 0  
   1035      4450.359 DT     0080 Rx 0  
   1036      4452.327 DT     0601 Rx 8  23 01 16 02 20 02 C1 60 
   1037      4452.609 DT     0581 Rx 8  60 01 16 02 00 00 00 00 
   1038      4454.252 DT     0080 Rx 0  
   1039      4458.240 DT     0080 Rx 0  
   1040      4458.361 DT     0601 Rx 8  2F 01 16 00 02 00 19 5F 
   1041      4459.190 DT     0581 Rx 8  60 01 16 00 00 00 00 00 
   1042      4462.230 DT     0080 Rx 0  
   1043      4466.221 DT     0080 Rx 0  
   1044      4470.210 DT     0080 Rx 0  
   1045      4474.203 DT     0080 Rx 0  
   1046      4478.190 DT     0080 Rx 0  
   1047      4482.180 DT     0080 Rx 0  
   1048      4486.170 DT     0080 Rx 0  
   1049      4490.161 DT     0080 Rx 0  
   1050      4494.151 DT     0080 Rx 0  
   1051      4498.140 DT     0080 Rx 0  
   1052      4502.130 DT     0080 Rx 0  
   1053      4506.122 DT     0080 Rx 0  
   1054      4510.112 DT     0080 Rx 0  
   1055      4510.231 DT     0601 Rx 8  2F 02 16 00 00 00 19 5F 
   1056      4510.583 DT     0581 Rx 8  60 02 16 00 00 00 00 00 
   1057      4514.101 DT     0080 Rx 0  
   1058      4518.091 DT     0080 Rx 0  
   1059      4522.082 DT     0080 Rx 0  
   1060      4526.074 DT     0080 Rx 0  
   1061      4530.065 DT     0080 Rx 0  
   1062      4534.052 DT     0080 Rx 0  
   1063      4538.044 DT     0080 Rx 0  
   1064      4542.033 DT     0080 Rx 0  
   1065      4546.023 DT     0080 Rx 0  
   1066      4550.013 DT     0080 Rx 0  
   1067      4554.001 DT     0080 Rx 0  
   1068      4557.990 DT     0080 Rx 0  
   1069      4560.061 DT     0601 Rx 8  2F 02 16 00 00 00 19 5F 
   1070      4560.484 DT     0581 Rx 8  60 02 16 00 00 00 00 00 
   1071      4561.980 DT     0080 Rx 0  
   1072      4565.972 DT     0080 Rx 0  
   1073      4566.091 DT     0601 Rx 8  2F 03 16 00 00 00 19 5F 
   1074      4566.441 DT     0581 Rx 8  60 03 16 00 00 00 00 00 
   1075      4569.960 DT     0080 Rx 0  
   1076      4573.950 DT     0080 Rx 0  
   1077      4577.941 DT     0080 Rx 0  
   1078      4581.931 DT     0080 Rx 0  
   1079      4585.921 DT     0080 Rx 0  
   1080      4589.912 DT     0080 Rx 0  
   1081      4593.903 DT     0080 Rx 0  
   1082      4597.893 DT     0080 Rx 0  
   1083      4601.881 DT     0080 Rx 0  
   1084      4605.871 DT     0080 Rx 0  
   1085      4609.861 DT     0080 Rx 0  
   1086      4613.852 DT     0080 Rx 0  
   1087      4615.920 DT     0601 Rx 8  2F 03 16 00 00 00 19 5F 
   1088      4616.244 DT     0581 Rx 8  60 03 16 00 00 00 00 00 
   1089      4617.841 DT     0080 Rx 0  
   1090      4621.828 DT     0080 Rx 0  
   1091      4623.900 DT     0601 Rx 8  2F 00 1A 00 00 00 19 5F 
   1092      4624.275 DT     0581 Rx 8  60 00 1A 00 00 00 00 00 
   1093      4625.818 DT     0080 Rx 0  
   1094      4629.809 DT     0080 Rx 0  
   1095      4633.800 DT     0080 Rx 0  
   1096      4637.789 DT     0080 Rx 0  
   1097      4641.779 DT     0080 Rx 0  
   1098      4645.769 DT     0080 Rx 0  
   1099      4649.760 DT     0080 Rx 0  
   1100      4653.749 DT     0080 Rx 0  
   1101      4657.739 DT     0080 Rx 0  
   1102      4661.726 DT     0080 Rx 0  
   1103      4665.716 DT     0080 Rx 0  
   1104      4669.704 DT     0080 Rx 0  
   1105      4673.694 DT     0080 Rx 0  
   1106      4673.816 DT     0601 Rx 8  23 00 1A 01 10 00 72 20 
   1107      4674.044 DT     0581 Rx 8  60 00 1A 01 00 00 00 00 
   1108      4677.685 DT     0080 Rx 0  
   1109      4681.673 DT     0080 Rx 0  
   1110      4685.664 DT     0080 Rx 0  
   1111      4689.651 DT     0080 Rx 0  
   1112      4693.642 DT     0080 Rx 0  
   1113      4697.630 DT     0080 Rx 0  
   1114      4701.621 DT     0080 Rx 0  
   1115      4705.610 DT     0080 Rx 0  
   1116      4709.600 DT     0080 Rx 0  
   1117      4713.588 DT     0080 Rx 0  
   1118      4717.577 DT     0080 Rx 0  
   1119      4721.566 DT     0080 Rx 0  
   1120      4725.556 DT     0080 Rx 0  
   1121      4729.546 DT     0080 Rx 0  
   1122      4733.534 DT     0080 Rx 0  
   1123      4733.658 DT     0601 Rx 8  23 00 1A 01 10 00 72 20 
   1124      4734.007 DT     0581 Rx 8  60 00 1A 01 00 00 00 00 
   1125      4737.523 DT     0080 Rx 0  
   1126      4739.592 DT     0601 Rx 8  23 00 1A 02 10 00 41 60 
   1127      4739.908 DT     0581 Rx 8  60 00 1A 02 00 00 00 00 
   1128      4741.511 DT     0080 Rx 0  
   1129      4745.499 DT     0080 Rx 0  
   1130      4749.490 DT     0080 Rx 0  
   1131      4753.478 DT     0080 Rx 0  
   1132      4757.469 DT     0080 Rx 0  
   1133      4761.457 DT     0080 Rx 0  
   1134      4765.445 DT     0080 Rx 0  
   1135      4769.435 DT     0080 Rx 0  
   1136      4773.424 DT     0080 Rx 0  
   1137      4777.413 DT     0080 Rx 0  
   1138      4781.403 DT     0080 Rx 0  
   1139      4785.391 DT     0080 Rx 0  
   1140      4789.382 DT     0080 Rx 0  
   1141      4793.371 DT     0080 Rx 0  
   1142      4795.388 DT     0000 Rx 2  01 00 
   1143      4795.716 DT     0281 Rx 3  50 02 00 
   1144      4797.357 DT     0080 Rx 0  
   1145      4801.348 DT     0080 Rx 0  
   1146      4801.467 DT     0601 Rx 8  23 00 1A 02 10 00 41 60 
   1147      4801.762 DT     0581 Rx 8  60 00 1A 02 00 00 00 00 
   1148      4805.338 DT     0080 Rx 0  
   1149      4809.329 DT     0080 Rx 0  
   1150      4813.316 DT     0080 Rx 0  
   1151      4817.306 DT     0080 Rx 0  
   1152      4821.294 DT     0080 Rx 0  
   1153      4825.283 DT     0080 Rx 0  
   1154      4829.273 DT     0080 Rx 0  
   1155      4833.262 DT     0080 Rx 0  
   1156      4837.250 DT     0080 Rx 0  
   1157      4841.238 DT     0080 Rx 0  
   1158      4845.228 DT     0080 Rx 0  
   1159      4849.219 DT     0080 Rx 0  
   1160      4853.207 DT     0080 Rx 0  
   1161      4857.195 DT     0080 Rx 0  
   1162      4861.186 DT     0080 Rx 0  
   1163      4861.305 DT     0601 Rx 8  23 00 1A 02 10 00 41 60 
   1164      4861.604 DT     0581 Rx 8  60 00 1A 02 00 00 00 00 
   1165      4865.173 DT     0080 Rx 0  
   1166      4867.241 DT     0601 Rx 8  23 00 1A 03 20 00 64 60 
   1167      4867.465 DT     0581 Rx 8  60 00 1A 03 00 00 00 00 
   1168      4869.163 DT     0080 Rx 0  
   1169      4873.153 DT     0080 Rx 0  
   1170      4877.142 DT     0080 Rx 0  
   1171      4881.130 DT     0080 Rx 0  
   1172      4885.120 DT     0080 Rx 0  
   1173      4889.107 DT     0080 Rx 0  
   1174      4893.096 DT     0080 Rx 0  
   1175      4897.087 DT     0080 Rx 0  
   1176      4901.077 DT     0080 Rx 0  
   1177      4905.065 DT     0080 Rx 0  
   1178      4909.053 DT     0080 Rx 0  
   1179      4913.044 DT     0080 Rx 0  
   1180      4917.034 DT     0080 Rx 0  
   1181      4921.022 DT     0080 Rx 0  
   1182      4925.012 DT     0080 Rx 0  
   1183      4927.076 DT     0601 Rx 8  23 00 1A 03 20 00 64 60 
   1184      4927.352 DT     0581 Rx 8  60 00 1A 03 00 00 00 00 
   1185      4929.001 DT     0080 Rx 0  
   1186      4931.070 DT     0601 Rx 8  2F 00 1A 00 03 00 19 5F 
   1187      4932.035 DT     0581 Rx 8  60 00 1A 00 00 00 00 00 
   1188      4932.218 DT     0181 Rx 8  00 80 50 02 B0 FF 01 00 
   1189      4932.989 DT     0080 Rx 0  
   1190      4936.978 DT     0080 Rx 0  
   1191      4937.097 DT     0601 Rx 8  2F 01 1A 00 00 00 19 5F 
   1192      4937.400 DT     0581 Rx 8  60 01 1A 00 00 00 00 00 
   1193      4940.965 DT     0080 Rx 0  
   1194      4944.956 DT     0080 Rx 0  
   1195      4948.945 DT     0080 Rx 0  
   1196      4952.936 DT     0080 Rx 0  
   1197      4956.924 DT     0080 Rx 0  
   1198      4960.914 DT     0080 Rx 0  
   1199      4961.963 DT     0181 Rx 8  00 80 50 02 AF FF 01 00 
   1200      4964.905 DT     0080 Rx 0  
   1201      4968.892 DT     0080 Rx 0  
   1202      4969.011 DT     0601 Rx 8  23 01 1A 01 20 01 C1 60 
   1203      4969.299 DT     0581 Rx 8  60 01 1A 01 00 00 00 00 
   1204      4972.882 DT     0080 Rx 0  
   1205      4976.870 DT     0080 Rx 0  
   1206      4980.858 DT     0080 Rx 0  
   1207      4984.850 DT     0080 Rx 0  
   1208      4988.840 DT     0080 Rx 0  
   1209      4991.900 DT     0181 Rx 8  00 80 50 02 AF FF 01 00 
   1210      4992.830 DT     0080 Rx 0  
   1211      4996.817 DT     0080 Rx 0  
   1212      4996.938 DT     0601 Rx 8  23 01 1A 02 20 00 6C 60 
   1213      4997.270 DT     0581 Rx 8  60 01 1A 02 00 00 00 00 
   1214      5000.807 DT     0080 Rx 0  
   1215      5004.797 DT     0080 Rx 0  
   1216      5008.785 DT     0080 Rx 0  
   1217      5012.775 DT     0080 Rx 0  
   1218      5016.765 DT     0080 Rx 0  
   1219      5020.755 DT     0080 Rx 0  
   1220      5021.920 DT     0181 Rx 8  00 80 50 02 AF FF 01 00 
   1221      5024.746 DT     0080 Rx 0  
   1222      5028.735 DT     0080 Rx 0  
   1223      5028.859 DT     0601 Rx 8  2F 01 1A 00 02 00 19 5F 
   1224      5029.687 DT     0581 Rx 8  60 01 1A 00 00 00 00 00 
   1225      5029.904 DT     0281 Rx 8  00 00 00 00 00 00 00 00 
   1226      5030.853 DT     0701 Rx 1  05 
   1227      5032.725 DT     0080 Rx 0  
   1228      5034.794 DT     0601 Rx 8  2F 02 1A 00 00 00 19 5F 
   1229      5035.168 DT     0581 Rx 8  60 02 1A 00 00 00 00 00 
   1230      5036.715 DT     0080 Rx 0  
   1231      5040.707 DT     0080 Rx 0  
   1232      5044.695 DT     0080 Rx 0  
   1233      5048.685 DT     0080 Rx 0  
   1234      5052.676 DT     0080 Rx 0  
   1235      5056.666 DT     0080 Rx 0  
   1236      5060.653 DT     0080 Rx 0  
   1237      5064.643 DT     0080 Rx 0  
   1238      5068.631 DT     0080 Rx 0  
   1239      5072.623 DT     0080 Rx 0  
   1240      5076.007 DT     0181 Rx 8  00 80 50 02 AE FF 01 00 
   1241      5076.131 DT     0281 Rx 8  00 00 00 00 18 FC FF FF 
   1242      5076.611 DT     0080 Rx 0  
   1243      5080.602 DT     0080 Rx 0  
   1244      5082.670 DT     0601 Rx 8  2F 02 1A 00 00 00 19 5F 
   1245      5083.027 DT     0581 Rx 8  60 02 1A 00 00 00 00 00 
   1246      5084.589 DT     0080 Rx 0  
   1247      5088.581 DT     0080 Rx 0  
   1248      5092.569 DT     0080 Rx 0  
   1249      5096.557 DT     0080 Rx 0  
   1250      5100.546 DT     0080 Rx 0  
   1251      5104.536 DT     0080 Rx 0  
   1252      5105.869 DT     0181 Rx 8  00 80 50 02 AF FF 01 00 
   1253      5105.992 DT     0281 Rx 8  00 00 00 00 E8 03 00 00 
   1254      5108.527 DT     0080 Rx 0  
   1255      5112.516 DT     0080 Rx 0  
   1256      5112.638 DT     0601 Rx 8  2F 03 1A 00 00 00 19 5F 
   1257      5113.046 DT     0581 Rx 8  60 03 1A 00 00 00 00 00 
   1258      5116.506 DT     0080 Rx 0  
   1259      5120.495 DT     0080 Rx 0  
   1260      5124.487 DT     0080 Rx 0  
   1261      5128.476 DT     0080 Rx 0  
   1262      5132.464 DT     0080 Rx 0  
   1263      5135.845 DT     0181 Rx 8  00 80 50 02 AF FF 01 00 
   1264      5135.966 DT     0281 Rx 8  00 00 00 00 E8 03 00 00 
   1265      5136.453 DT     0080 Rx 0  
   1266      5140.441 DT     0080 Rx 0  
   1267      5142.513 DT     0601 Rx 8  2F 03 1A 00 00 00 19 5F 
   1268      5142.875 DT     0581 Rx 8  60 03 1A 00 00 00 00 00 
   1269      5144.433 DT     0080 Rx 0  
   1270      5148.421 DT     0080 Rx 0  
   1271      5152.411 DT     0080 Rx 0  
   1272      5156.399 DT     0080 Rx 0  
   1273      5160.389 DT     0080 Rx 0  
   1274      5164.380 DT     0080 Rx 0  
   1275      5165.836 DT     0181 Rx 8  00 80 50 02 AE FF 01 00 
   1276      5165.963 DT     0281 Rx 8  00 00 00 00 00 00 00 00 
   1277      5168.369 DT     0080 Rx 0  
   1278      5172.358 DT     0080 Rx 0  
   1279      5172.463 DT     0201 Rx 6  00 00 00 00 00 00 
   1280      5172.590 DT     0301 Rx 8  00 00 00 00 00 00 00 00 
   1281      5176.347 DT     0080 Rx 0  
   1282      5180.338 DT     0080 Rx 0  
   1283      5184.325 DT     0080 Rx 0  
   1284      5188.316 DT     0080 Rx 0  
   1285      5192.304 DT     0080 Rx 0  
   1286      5195.830 DT     0181 Rx 8  00 80 50 02 AF FF 01 00 
   1287      5195.954 DT     0281 Rx 8  00 00 00 00 00 00 00 00 
   1288      5196.293 DT     0080 Rx 0  
   1289      5200.282 DT     0080 Rx 0  
   1290      5204.272 DT     0080 Rx 0  
   1291      5208.260 DT     0080 Rx 0  
   1292      5212.249 DT     0080 Rx 0  
   1293      5216.240 DT     0080 Rx 0  
   1294      5220.227 DT     0080 Rx 0  
   1295      5224.218 DT     0080 Rx 0  
   1296      5225.725 DT     0181 Rx 8  00 80 50 02 AF FF 01 00 
   1297      5225.851 DT     0281 Rx 8  00 00 00 00 00 00 00 00 
   1298      5228.205 DT     0080 Rx 0  
   1299      5232.196 DT     0080 Rx 0  
   1300      5236.183 DT     0080 Rx 0  
   1301      5240.174 DT     0080 Rx 0  
   1302      5244.164 DT     0080 Rx 0  
   1303      5248.153 DT     0080 Rx 0  
   1304      5252.143 DT     0080 Rx 0  
   1305      5255.702 DT     0181 Rx 8  00 80 50 02 AF FF 01 00 
   1306      5255.826 DT     0281 Rx 8  00 00 00 00 00 00 00 00 
   1307      5256.131 DT     0080 Rx 0  
   1308      5260.122 DT     0080 Rx 0  
   1309      5264.110 DT     0080 Rx 0  
   1310      5268.100 DT     0080 Rx 0  
   1311      5272.088 DT     0080 Rx 0  
   1312      5276.075 DT     0080 Rx 0  
   1313      5280.066 DT     0080 Rx 0  
   1314      5284.055 DT     0080 Rx 0  
   1315      5285.686 DT     0181 Rx 8  00 80 50 02 AF FF 01 00 
   1316      5285.811 DT     0281 Rx 8  00 00 00 00 00 00 00 00 
   1317      5288.046 DT     0080 Rx 0  
   1318      5292.036 DT     0080 Rx 0  
   1319      5296.023 DT     0080 Rx 0  
   1320      5300.014 DT     0080 Rx 0  
   1321      5304.001 DT     0080 Rx 0  
   1322      5307.991 DT     0080 Rx 0  
   1323      5311.982 DT     0080 Rx 0  
   1324      5315.684 DT     0181 Rx 8  00 80 50 02 AE FF 01 00 
   1325      5315.811 DT     0281 Rx 8  00 00 00 00 00 00 00 00 
   1326      5315.972 DT     0080 Rx 0  
   1327      5319.961 DT     0080 Rx 0  
   1328      5323.951 DT     0080 Rx 0  
   1329      5327.939 DT     0080 Rx 0  
   1330      5331.929 DT     0080 Rx 0  
   1331      5335.919 DT     0080 Rx 0  
   1332      5339.910 DT     0080 Rx 0  
   1333      5343.898 DT     0080 Rx 0  
   1334      5347.887 DT     0080 Rx 0  
   1335      5348.766 DT     0181 Rx 8  00 80 50 02 AF FF 01 00 
   1336      5348.887 DT     0281 Rx 8  00 00 00 00 E8 03 00 00 
   1337      5351.877 DT     0080 Rx 0  
   1338      5355.869 DT     0080 Rx 0  
   1339      5359.856 DT     0080 Rx 0  
   1340      5363.846 DT     0080 Rx 0  
   1341      5367.834 DT     0080 Rx 0  
   1342      5371.826 DT     0080 Rx 0  
   1343      5375.814 DT     0080 Rx 0  
   1344      5378.652 DT     0181 Rx 8  00 80 50 02 AF FF 01 00 
   1345      5378.779 DT     0281 Rx 8  00 00 00 00 00 00 00 00 
   1346      5379.806 DT     0080 Rx 0  
   1347      5383.796 DT     0080 Rx 0  
   1348      5387.785 DT     0080 Rx 0  
   1349      5391.776 DT     0080 Rx 0  
   1350      5395.763 DT     0080 Rx 0  
   1351      5399.753 DT     0080 Rx 0  
   1352      5403.745 DT     0080 Rx 0  
   1353      5407.734 DT     0080 Rx 0  
   1354      5408.541 DT     0181 Rx 8  00 80 50 02 AF FF 01 00 
   1355      5408.668 DT     0281 Rx 8  00 00 00 00 00 00 00 00 
   1356      5411.727 DT     0080 Rx 0  
   1357      5415.713 DT     0080 Rx 0  
   1358      5419.703 DT     0080 Rx 0  
   1359      5423.691 DT     0080 Rx 0  
   1360      5427.682 DT     0080 Rx 0  
   1361      5431.669 DT     0080 Rx 0  
   1362      5435.657 DT     0080 Rx 0  
   1363      5438.687 DT     0181 Rx 8  00 80 50 02 AE FF 01 00 
   1364      5438.808 DT     0281 Rx 8  00 00 00 00 18 FC FF FF 
   1365      5439.647 DT     0080 Rx 0  
   1366      5443.638 DT     0080 Rx 0  
   1367      5447.626 DT     0080 Rx 0  
   1368      5451.516 DT     0080 Rx 0  
   1369      5455.504 DT     0080 Rx 0  
   1370      5459.495 DT     0080 Rx 0  
   1371      5463.485 DT     0080 Rx 0  
   1372      5467.473 DT     0080 Rx 0  
   1373      5468.391 DT     0181 Rx 8  00 80 50 02 AF FF 01 00 
   1374      5468.516 DT     0281 Rx 8  00 00 00 00 00 00 00 00 
   1375      5471.464 DT     0080 Rx 0  
   1376      5475.452 DT     0080 Rx 0  
   1377      5479.441 DT     0080 Rx 0  
   1378      5483.432 DT     0080 Rx 0  
   1379      5487.420 DT     0080 Rx 0  
   1380      5491.412 DT     0080 Rx 0  
   1381      5495.400 DT     0080 Rx 0  
   1382      5498.384 DT     0181 Rx 8  00 80 50 02 AE FF 01 00 
   1383      5498.509 DT     0281 Rx 8  00 00 00 00 00 00 00 00 
   1384      5499.389 DT     0080 Rx 0  
   1385      5503.379 DT     0080 Rx 0  
   1386      5507.366 DT     0080 Rx 0  
   1387      5511.356 DT     0080 Rx 0  
   1388      5515.344 DT     0080 Rx 0  
   1389      5519.334 DT     0080 Rx 0  
   1390      5523.321 DT     0080 Rx 0  
   1391      5527.310 DT     0080 Rx 0  
   1392      5528.432 DT     0181 Rx 8  00 80 50 02 AE FF 01 00 
   1393      5528.557 DT     0281 Rx 8  00 00 00 00 00 00 00 00 
   1394      5531.301 DT     0080 Rx 0  
   1395      5535.287 DT     0080 Rx 0  
   1396      5539.276 DT     0080 Rx 0  
   1397      5543.264 DT     0080 Rx 0  
   1398      5547.255 DT     0080 Rx 0  
   1399      5551.243 DT     0080 Rx 0  
   1400      5555.233 DT     0080 Rx 0  
   1401      5558.306 DT     0181 Rx 8  00 80 50 02 AE FF 01 00 
   1402      5558.432 DT     0281 Rx 8  00 00 00 00 00 00 00 00 
   1403      5559.221 DT     0080 Rx 0  
   1404      5563.211 DT     0080 Rx 0  
   1405      5567.199 DT     0080 Rx 0  
   1406      5571.190 DT     0080 Rx 0  
   1407      5575.177 DT     0080 Rx 0  
   1408      5579.165 DT     0080 Rx 0  
   1409      5583.154 DT     0080 Rx 0  
   1410      5587.141 DT     0080 Rx 0  
   1411      5588.353 DT     0181 Rx 8  00 80 50 02 AE FF 01 00 
   1412      5588.479 DT     0281 Rx 8  00 00 00 00 00 00 00 00 
   1413      5591.132 DT     0080 Rx 0  
   1414      5595.118 DT     0080 Rx 0  
   1415      5599.108 DT     0080 Rx 0  
   1416      5603.097 DT     0080 Rx 0  
   1417      5607.087 DT     0080 Rx 0  
   1418      5611.077 DT     0080 Rx 0  
   1419      5615.064 DT     0080 Rx 0  
   1420      5618.351 DT     0181 Rx 8  00 80 50 02 AE FF 01 00 
   1421      5618.473 DT     0281 Rx 8  00 00 00 00 18 FC FF FF 
   1422      5619.055 DT     0080 Rx 0  
   1423      5623.044 DT     0080 Rx 0  
   1424      5627.032 DT     0080 Rx 0  
   1425      5631.023 DT     0080 Rx 0  
   1426      5635.010 DT     0080 Rx 0  
   1427      5638.998 DT     0080 Rx 0  
   1428      5642.989 DT     0080 Rx 0  
   1429      5646.977 DT     0080 Rx 0  
   1430      5648.250 DT     0181 Rx 8  00 80 50 02 AF FF 01 00 
   1431      5648.375 DT     0281 Rx 8  00 00 00 00 00 00 00 00 
   1432      5650.965 DT     0080 Rx 0  
   1433      5654.953 DT     0080 Rx 0  
   1434      5658.941 DT     0080 Rx 0  
   1435      5662.931 DT     0080 Rx 0  
   1436      5666.919 DT     0080 Rx 0  
   1437      5670.910 DT     0080 Rx 0  
   1438      5674.900 DT     0080 Rx 0  
   1439      5678.204 DT     0181 Rx 8  00 80 50 02 AF FF 01 00 
   1440      5678.331 DT     0281 Rx 8  00 00 00 00 00 00 00 00 
   1441      5678.888 DT     0080 Rx 0  
   1442      5682.876 DT     0080 Rx 0  
   1443      5686.864 DT     0080 Rx 0  
   1444      5690.853 DT     0080 Rx 0  
   1445      5694.841 DT     0080 Rx 0  
   1446      5698.829 DT     0080 Rx 0  
   1447      5702.819 DT     0080 Rx 0  
   1448      5706.808 DT     0080 Rx 0  
   1449      5708.227 DT     0181 Rx 8  00 80 50 02 AF FF 01 00 
   1450      5708.354 DT     0281 Rx 8  00 00 00 00 00 00 00 00 
   1451      5710.799 DT     0080 Rx 0  
   1452      5714.786 DT     0080 Rx 0  
   1453      5718.775 DT     0080 Rx 0  
   1454      5722.764 DT     0080 Rx 0  
   1455      5726.753 DT     0080 Rx 0  
   1456      5730.741 DT     0080 Rx 0  
   1457      5734.729 DT     0080 Rx 0  
   1458      5738.717 DT     0080 Rx 0  
   1459      5742.708 DT     0080 Rx 0  
   1460      5746.696 DT     0080 Rx 0  
   1461      5750.686 DT     0080 Rx 0  
   1462      5754.674 DT     0080 Rx 0  
   1463      5758.663 DT     0080 Rx 0  
   1464      5762.653 DT     0080 Rx 0  
   1465      5766.640 DT     0080 Rx 0  
   1466      5770.631 DT     0080 Rx 0  
   1467      5774.619 DT     0080 Rx 0  
   1468      5778.611 DT     0080 Rx 0  
   1469      5782.597 DT     0080 Rx 0  
   1470      5786.588 DT     0080 Rx 0  
   1471      5790.575 DT     0080 Rx 0  
   1472      5792.207 DT     0181 Rx 8  00 80 50 02 B0 FF 01 00 
   1473      5792.329 DT     0281 Rx 8  00 00 00 00 E8 03 00 00 
   1474      5794.567 DT     0080 Rx 0  
   1475      5798.554 DT     0080 Rx 0  
   1476      5802.542 DT     0080 Rx 0  
   1477      5806.530 DT     0080 Rx 0  
   1478      5810.520 DT     0080 Rx 0  
   1479      5814.508 DT     0080 Rx 0  
   1480      5818.499 DT     0080 Rx 0  
   1481      5822.180 DT     0181 Rx 8  00 80 50 02 AF FF 01 00 
   1482      5822.307 DT     0281 Rx 8  00 00 00 00 00 00 00 00 
   1483      5822.488 DT     0080 Rx 0  
   1484      5826.476 DT     0080 Rx 0  
   1485      5830.466 DT     0080 Rx 0  
   1486      5834.453 DT     0080 Rx 0  
   1487      5838.444 DT     0080 Rx 0  
   1488      5842.434 DT     0080 Rx 0  
   1489      5846.422 DT     0080 Rx 0  
   1490      5850.412 DT     0080 Rx 0  
   1491      5852.084 DT     0181 Rx 8  00 80 50 02 B0 FF 01 00 
   1492      5852.209 DT     0281 Rx 8  00 00 00 00 00 00 00 00 
   1493      5854.403 DT     0080 Rx 0  
   1494      5858.390 DT     0080 Rx 0  
   1495      5862.381 DT     0080 Rx 0  
   1496      5866.369 DT     0080 Rx 0  
   1497      5870.359 DT     0080 Rx 0  
   1498      5874.347 DT     0080 Rx 0  
   1499      5878.336 DT     0080 Rx 0  
   1500      5882.045 DT     0181 Rx 8  00 80 50 02 B0 FF 01 00 
   1501      5882.172 DT     0281 Rx 8  00 00 00 00 E8 03 00 00 
   1502      5882.327 DT     0080 Rx 0  
   1503      5886.315 DT     0080 Rx 0  
   1504      5890.305 DT     0080 Rx 0  
   1505      5894.293 DT     0080 Rx 0  
   1506      5898.283 DT     0080 Rx 0  
   1507      5902.273 DT     0080 Rx 0  
   1508      5906.263 DT     0080 Rx 0  
   1509      5910.252 DT     0080 Rx 0  
   1510      5912.069 DT     0181 Rx 8  00 80 50 02 B0 FF 01 00 
   1511      5912.196 DT     0281 Rx 8  00 00 00 00 00 00 00 00 
   1512      5914.239 DT     0080 Rx 0  
   1513      5918.230 DT     0080 Rx 0  
   1514      5922.218 DT     0080 Rx 0  
   1515      5926.207 DT     0080 Rx 0  
   1516      5930.195 DT     0080 Rx 0  
   1517      5934.183 DT     0080 Rx 0  
   1518      5938.173 DT     0080 Rx 0  
   1519      5942.010 DT     0181 Rx 8  00 80 50 02 AF FF 01 00 
   1520      5942.134 DT     0281 Rx 8  00 00 00 00 00 00 00 00 
   1521      5942.187 DT     0080 Rx 0  
   1522      5946.151 DT     0080 Rx 0  
   1523      5950.138 DT     0080 Rx 0  
   1524      5954.130 DT     0080 Rx 0  
   1525      5958.117 DT     0080 Rx 0  
   1526      5962.105 DT     0080 Rx 0  
   1527      5966.095 DT     0080 Rx 0  
   1528      5970.083 DT     0080 Rx 0  
   1529      5972.130 DT     0181 Rx 8  00 80 50 02 AF FF 01 00 
   1530      5972.254 DT     0281 Rx 8  00 00 00 00 00 00 00 00 
   1531      5974.074 DT     0080 Rx 0  
   1532      5978.061 DT     0080 Rx 0  
   1533      5982.050 DT     0080 Rx 0  
   1534      5986.038 DT     0080 Rx 0  
   1535      5990.029 DT     0080 Rx 0  
   1536      5994.019 DT     0080 Rx 0  
   1537      5998.006 DT     0080 Rx 0  
   1538      6001.974 DT     0181 Rx 8  00 80 50 02 AF FF 01 00 
   1539      6002.024 DT     0080 Rx 0  
   1540      6002.150 DT     0281 Rx 8  00 00 00 00 00 00 00 00 
   1541      6005.986 DT     0080 Rx 0  
   1542      6009.976 DT     0080 Rx 0  
   1543      6013.966 DT     0080 Rx 0  
   1544      6017.954 DT     0080 Rx 0  
   1545      6021.944 DT     0080 Rx 0  
   1546      6025.933 DT     0080 Rx 0  
   1547      6029.923 DT     0080 Rx 0  
   1548      6029.981 DT     0701 Rx 1  05 
   1549      6031.987 DT     0181 Rx 8  00 80 50 02 AF FF 01 00 
   1550      6032.114 DT     0281 Rx 8  00 00 00 00 00 00 00 00 
   1551      6033.911 DT     0080 Rx 0  
   1552      6037.900 DT     0080 Rx 0  
   1553      6041.889 DT     0080 Rx 0  
   1554      6045.879 DT     0080 Rx 0  
   1555      6049.867 DT     0080 Rx 0  
   1556      6053.855 DT     0080 Rx 0  
   1557      6057.845 DT     0080 Rx 0  
   1558      6061.834 DT     0080 Rx 0  
   1559      6065.825 DT     0080 Rx 0  
   1560      6069.812 DT     0080 Rx 0  
   1561      6073.802 DT     0080 Rx 0  
   1562      6077.791 DT     0080 Rx 0  
   1563      6081.781 DT     0080 Rx 0  
   1564      6085.769 DT     0080 Rx 0  
   1565      6089.759 DT     0080 Rx 0  
   1566      6093.748 DT     0080 Rx 0  
   1567      6097.738 DT     0080 Rx 0  
   1568      6101.726 DT     0080 Rx 0  
   1569      6103.936 DT     0181 Rx 8  00 80 50 02 B0 FF 01 00 
   1570      6104.060 DT     0281 Rx 8  00 00 00 00 E8 03 00 00 
   1571      6105.717 DT     0080 Rx 0  
   1572      6109.707 DT     0080 Rx 0  
   1573      6113.696 DT     0080 Rx 0  
   1574      6117.686 DT     0080 Rx 0  
   1575      6121.675 DT     0080 Rx 0  
   1576      6125.663 DT     0080 Rx 0  
   1577      6129.655 DT     0080 Rx 0  
   1578      6133.644 DT     0080 Rx 0  
   1579      6133.829 DT     0181 Rx 8  00 80 50 02 AF FF 01 00 
   1580      6133.954 DT     0281 Rx 8  00 00 00 00 00 00 00 00 
   1581      6137.634 DT     0080 Rx 0  
   1582      6141.622 DT     0080 Rx 0  
   1583      6145.612 DT     0080 Rx 0  
   1584      6149.602 DT     0080 Rx 0  
   1585      6153.593 DT     0080 Rx 0  
   1586      6157.581 DT     0080 Rx 0  
   1587      6161.570 DT     0080 Rx 0  
   1588      6163.831 DT     0181 Rx 8  00 80 50 02 AF FF 01 00 
   1589      6163.958 DT     0281 Rx 8  00 00 00 00 00 00 00 00 
   1590      6165.558 DT     0080 Rx 0  
   1591      6169.548 DT     0080 Rx 0  
   1592      6173.538 DT     0080 Rx 0  
   1593      6177.527 DT     0080 Rx 0  
   1594      6181.514 DT     0080 Rx 0  
   1595      6185.504 DT     0080 Rx 0  
   1596      6189.495 DT     0080 Rx 0  
   1597      6193.483 DT     0080 Rx 0  
   1598      6193.796 DT     0181 Rx 8  00 80 50 02 B0 FF 01 00 
   1599      6193.923 DT     0281 Rx 8  00 00 00 00 00 00 00 00 
   1600      6197.473 DT     0080 Rx 0  
   1601      6201.465 DT     0080 Rx 0  
   1602      6205.452 DT     0080 Rx 0  
   1603      6209.443 DT     0080 Rx 0  
   1604      6213.430 DT     0080 Rx 0  
   1605      6217.420 DT     0080 Rx 0  
   1606      6221.408 DT     0080 Rx 0  
   1607      6223.833 DT     0181 Rx 8  00 80 50 02 AF FF 01 00 
   1608      6223.960 DT     0281 Rx 8  00 00 00 00 00 00 00 00 
   1609      6225.398 DT     0080 Rx 0  
   1610      6229.388 DT     0080 Rx 0  
   1611      6233.377 DT     0080 Rx 0  
   1612      6237.367 DT     0080 Rx 0  
   1613      6241.355 DT     0080 Rx 0  
   1614      6245.343 DT     0080 Rx 0  
   1615      6249.333 DT     0080 Rx 0  
   1616      6253.322 DT     0080 Rx 0  
   1617      6257.312 DT     0080 Rx 0  
   1618      6261.300 DT     0080 Rx 0  
   1619      6265.288 DT     0080 Rx 0  
   1620      6269.276 DT     0080 Rx 0  
   1621      6273.267 DT     0080 Rx 0  
   1622      6277.256 DT     0080 Rx 0  
   1623      6281.243 DT     0080 Rx 0  
   1624      6285.232 DT     0080 Rx 0  
   1625      6289.223 DT     0080 Rx 0  
   1626      6293.213 DT     0080 Rx 0  
   1627      6297.202 DT     0080 Rx 0  
   1628      6301.192 DT     0080 Rx 0  
   1629      6305.180 DT     0080 Rx 0  
   1630      6309.171 DT     0080 Rx 0  
   1631      6313.161 DT     0080 Rx 0  
   1632      6317.149 DT     0080 Rx 0  
   1633      6321.139 DT     0080 Rx 0  
   1634      6325.130 DT     0080 Rx 0  
   1635      6329.120 DT     0080 Rx 0  
   1636      6333.107 DT     0080 Rx 0  
   1637      6337.095 DT     0080 Rx 0  
   1638      6341.087 DT     0080 Rx 0  
   1639      6342.831 DT     0181 Rx 8  00 80 50 02 AE FF 01 00 
   1640      6342.953 DT     0281 Rx 8  00 00 00 00 18 FC FF FF 
   1641      6345.075 DT     0080 Rx 0  
   1642      6349.067 DT     0080 Rx 0  
   1643      6353.054 DT     0080 Rx 0  
   1644      6357.044 DT     0080 Rx 0  
   1645      6361.034 DT     0080 Rx 0  
   1646      6365.024 DT     0080 Rx 0  
   1647      6369.011 DT     0080 Rx 0  
   1648      6372.643 DT     0281 Rx 8  00 00 00 00 00 00 00 00 
   1649      6373.003 DT     0080 Rx 0  
   1650      6374.847 DT     0181 Rx 8  00 80 50 02 AF FF 01 00 
   1651      6376.991 DT     0080 Rx 0  
   1652      6380.984 DT     0080 Rx 0  
   1653      6384.973 DT     0080 Rx 0  
   1654      6388.961 DT     0080 Rx 0  
   1655      6392.951 DT     0080 Rx 0  
   1656      6396.942 DT     0080 Rx 0  
   1657      6400.933 DT     0080 Rx 0  
   1658      6402.761 DT     0281 Rx 8  00 00 00 00 00 00 00 00 
   1659      6404.645 DT     0181 Rx 8  00 80 50 02 AE FF 01 00 
   1660      6404.923 DT     0080 Rx 0  
   1661      6408.912 DT     0080 Rx 0  
   1662      6412.900 DT     0080 Rx 0  
   1663      6416.890 DT     0080 Rx 0  
   1664      6420.879 DT     0080 Rx 0  
   1665      6424.869 DT     0080 Rx 0  
   1666      6428.859 DT     0080 Rx 0  
   1667      6432.662 DT     0281 Rx 8  00 00 00 00 00 00 00 00 
   1668      6432.847 DT     0080 Rx 0  
   1669      6434.724 DT     0181 Rx 8  00 80 50 02 AF FF 01 00 
   1670      6436.836 DT     0080 Rx 0  
   1671      6440.827 DT     0080 Rx 0  
   1672      6444.815 DT     0080 Rx 0  
   1673      6448.807 DT     0080 Rx 0  
   1674      6452.694 DT     0080 Rx 0  
   1675      6456.684 DT     0080 Rx 0  
   1676      6460.672 DT     0080 Rx 0  
   1677      6462.430 DT     0281 Rx 8  00 00 00 00 00 00 00 00 
   1678      6464.512 DT     0181 Rx 8  00 80 50 02 AF FF 01 00 
   1679      6464.661 DT     0080 Rx 0  
   1680      6468.650 DT     0080 Rx 0  
   1681      6472.639 DT     0080 Rx 0  
   1682      6476.629 DT     0080 Rx 0  
   1683      6480.619 DT     0080 Rx 0  
   1684      6484.610 DT     0080 Rx 0  
   1685      6488.598 DT     0080 Rx 0  
   1686      6492.434 DT     0281 Rx 8  00 00 00 00 00 00 00 00 
   1687      6492.587 DT     0080 Rx 0  
   1688      6494.568 DT     0181 Rx 8  00 80 50 02 AF FF 01 00 
   1689      6496.576 DT     0080 Rx 0  
   1690      6500.566 DT     0080 Rx 0  
   1691      6504.554 DT     0080 Rx 0  
   1692      6508.543 DT     0080 Rx 0  
   1693      6512.531 DT     0080 Rx 0  
   1694      6516.522 DT     0080 Rx 0  
   1695      6520.511 DT     0080 Rx 0  
   1696      6522.382 DT     0281 Rx 8  00 00 00 00 00 00 00 00 
   1697      6524.446 DT     0181 Rx 8  00 80 50 02 AE FF 01 00 
   1698      6524.504 DT     0080 Rx 0  
   1699      6528.491 DT     0080 Rx 0  
   1700      6532.479 DT     0080 Rx 0  
   1701      6536.470 DT     0080 Rx 0  
   1702      6540.459 DT     0080 Rx 0  
   1703      6544.449 DT     0080 Rx 0  
   1704      6548.439 DT     0080 Rx 0  
   1705      6552.354 DT     0281 Rx 8  00 00 00 00 00 00 00 00 
   1706      6552.428 DT     0080 Rx 0  
   1707      6556.419 DT     0080 Rx 0  
   1708      6560.409 DT     0080 Rx 0  
   1709      6564.400 DT     0080 Rx 0  
   1710      6568.388 DT     0080 Rx 0  
   1711      6572.380 DT     0080 Rx 0  
   1712      6576.369 DT     0080 Rx 0  
   1713      6577.422 DT     0181 Rx 8  00 80 50 02 AF FF 01 00 
   1714      6580.358 DT     0080 Rx 0  
