;$FILEVERSION=2.0
;$STARTTIME=45232.8237570602
;$COLUMNS=N,O,T,I,d,l,D
;
;   Start time: 2023/11/2 19:46:12.610.0
;   Generated by PCAN-View v4.3.4.615
;-------------------------------------------------------------------------------
;   Connection                 Bit rate
;   PCANLight_USB_16@pcan_usb  Nominal 1 MBit/s, Data 1 MBit/s
;-------------------------------------------------------------------------------
;   Message   Time    Type ID     Rx/Tx
;   Number    Offset  |    [hex]  |  Data Length
;   |         [ms]    |    |      |  |  Data [hex] ...
;   |         |       |    |      |  |  |
;---+-- ------+------ +- --+----- +- +- +- +- -- -- -- -- -- -- --
      1      1951.799 DT     0080 Rx 0  
      2      1961.778 DT     0080 Rx 0  
      3      1971.755 DT     0080 Rx 0  
      4      1981.733 DT     0080 Rx 0  
      5      1991.709 DT     0080 Rx 0  
      6      2001.688 DT     0080 Rx 0  
      7      2011.666 DT     0080 Rx 0  
      8      2021.645 DT     0080 Rx 0  
      9      2031.623 DT     0080 Rx 0  
     10      2041.600 DT     0080 Rx 0  
     11      2051.577 DT     0080 Rx 0  
     12      2061.555 DT     0080 Rx 0  
     13      2071.535 DT     0080 Rx 0  
     14      2081.514 DT     0080 Rx 0  
     15      2091.492 DT     0080 Rx 0  
     16      2101.471 DT     0080 Rx 0  
     17      2111.447 DT     0080 Rx 0  
     18      2121.425 DT     0080 Rx 0  
     19      2131.404 DT     0080 Rx 0  
     20      2141.380 DT     0080 Rx 0  
     21      2151.356 DT     0080 Rx 0  
     22      2161.331 DT     0080 Rx 0  
     23      2171.311 DT     0080 Rx 0  
     24      2181.288 DT     0080 Rx 0  
     25      2191.265 DT     0080 Rx 0  
     26      2201.143 DT     0080 Rx 0  
     27      2211.121 DT     0080 Rx 0  
     28      2221.099 DT     0080 Rx 0  
     29      2231.073 DT     0080 Rx 0  
     30      2241.048 DT     0080 Rx 0  
     31      2251.025 DT     0080 Rx 0  
     32      2261.002 DT     0080 Rx 0  
     33      2270.981 DT     0080 Rx 0  
     34      2280.959 DT     0080 Rx 0  
     35      2290.936 DT     0080 Rx 0  
     36      2300.913 DT     0080 Rx 0  
     37      2310.891 DT     0080 Rx 0  
     38      2320.866 DT     0080 Rx 0  
     39      2330.845 DT     0080 Rx 0  
     40      2340.823 DT     0080 Rx 0  
     41      2350.802 DT     0080 Rx 0  
     42      2360.779 DT     0080 Rx 0  
     43      2370.755 DT     0080 Rx 0  
     44      2380.735 DT     0080 Rx 0  
     45      2390.712 DT     0080 Rx 0  
     46      2400.685 DT     0080 Rx 0  
     47      2410.661 DT     0080 Rx 0  
     48      2420.639 DT     0080 Rx 0  
     49      2430.617 DT     0080 Rx 0  
     50      2440.595 DT     0080 Rx 0  
     51      2450.574 DT     0080 Rx 0  
     52      2460.552 DT     0080 Rx 0  
     53      2470.532 DT     0080 Rx 0  
     54      2480.507 DT     0080 Rx 0  
     55      2490.483 DT     0080 Rx 0  
     56      2500.463 DT     0080 Rx 0  
     57      2510.440 DT     0080 Rx 0  
     58      2520.417 DT     0080 Rx 0  
     59      2530.393 DT     0080 Rx 0  
     60      2540.373 DT     0080 Rx 0  
     61      2550.349 DT     0080 Rx 0  
     62      2560.325 DT     0080 Rx 0  
     63      2570.302 DT     0080 Rx 0  
     64      2580.282 DT     0080 Rx 0  
     65      2590.260 DT     0080 Rx 0  
     66      2600.239 DT     0080 Rx 0  
     67      2610.215 DT     0080 Rx 0  
     68      2620.194 DT     0080 Rx 0  
     69      2630.173 DT     0080 Rx 0  
     70      2640.153 DT     0080 Rx 0  
     71      2650.133 DT     0080 Rx 0  
     72      2660.113 DT     0080 Rx 0  
     73      2670.092 DT     0080 Rx 0  
     74      2680.073 DT     0080 Rx 0  
     75      2690.051 DT     0080 Rx 0  
     76      2700.029 DT     0080 Rx 0  
     77      2710.008 DT     0080 Rx 0  
     78      2719.987 DT     0080 Rx 0  
     79      2729.965 DT     0080 Rx 0  
     80      2739.944 DT     0080 Rx 0  
     81      2749.922 DT     0080 Rx 0  
     82      2759.902 DT     0080 Rx 0  
     83      2769.878 DT     0080 Rx 0  
     84      2779.854 DT     0080 Rx 0  
     85      2789.833 DT     0080 Rx 0  
     86      2799.810 DT     0080 Rx 0  
     87      2809.789 DT     0080 Rx 0  
     88      2819.766 DT     0080 Rx 0  
     89      2829.743 DT     0080 Rx 0  
     90      2839.720 DT     0080 Rx 0  
     91      2849.695 DT     0080 Rx 0  
     92      2859.675 DT     0080 Rx 0  
     93      2869.651 DT     0080 Rx 0  
     94      2879.629 DT     0080 Rx 0  
     95      2889.607 DT     0080 Rx 0  
     96      2899.585 DT     0080 Rx 0  
     97      2909.560 DT     0080 Rx 0  
     98      2919.538 DT     0080 Rx 0  
     99      2929.514 DT     0080 Rx 0  
    100      2939.491 DT     0080 Rx 0  
    101      2949.467 DT     0080 Rx 0  
    102      2959.445 DT     0080 Rx 0  
    103      2969.424 DT     0080 Rx 0  
    104      2979.400 DT     0080 Rx 0  
    105      2989.379 DT     0080 Rx 0  
    106      2999.357 DT     0080 Rx 0  
    107      3009.337 DT     0080 Rx 0  
    108      3019.313 DT     0080 Rx 0  
    109      3029.290 DT     0080 Rx 0  
    110      3039.269 DT     0080 Rx 0  
    111      3049.248 DT     0080 Rx 0  
    112      3059.224 DT     0080 Rx 0  
    113      3069.203 DT     0080 Rx 0  
    114      3079.179 DT     0080 Rx 0  
    115      3089.158 DT     0080 Rx 0  
    116      3099.134 DT     0080 Rx 0  
    117      3109.113 DT     0080 Rx 0  
    118      3119.090 DT     0080 Rx 0  
    119      3129.067 DT     0080 Rx 0  
    120      3139.042 DT     0080 Rx 0  
    121      3149.018 DT     0080 Rx 0  
    122      3158.997 DT     0080 Rx 0  
    123      3168.973 DT     0080 Rx 0  
    124      3178.950 DT     0080 Rx 0  
    125      3188.926 DT     0080 Rx 0  
    126      3198.804 DT     0080 Rx 0  
    127      3208.781 DT     0080 Rx 0  
    128      3218.757 DT     0080 Rx 0  
    129      3228.735 DT     0080 Rx 0  
    130      3238.713 DT     0080 Rx 0  
    131      3248.690 DT     0080 Rx 0  
    132      3258.669 DT     0080 Rx 0  
    133      3268.648 DT     0080 Rx 0  
    134      3278.624 DT     0080 Rx 0  
    135      3288.603 DT     0080 Rx 0  
    136      3298.582 DT     0080 Rx 0  
    137      3308.558 DT     0080 Rx 0  
    138      3318.533 DT     0080 Rx 0  
    139      3328.512 DT     0080 Rx 0  
    140      3338.491 DT     0080 Rx 0  
    141      3348.467 DT     0080 Rx 0  
    142      3358.443 DT     0080 Rx 0  
    143      3368.420 DT     0080 Rx 0  
    144      3378.397 DT     0080 Rx 0  
    145      3388.373 DT     0080 Rx 0  
    146      3398.349 DT     0080 Rx 0  
    147      3408.327 DT     0080 Rx 0  
    148      3418.305 DT     0080 Rx 0  
    149      3428.282 DT     0080 Rx 0  
    150      3438.260 DT     0080 Rx 0  
    151      3448.238 DT     0080 Rx 0  
    152      3458.213 DT     0080 Rx 0  
    153      3468.189 DT     0080 Rx 0  
    154      3478.165 DT     0080 Rx 0  
    155      3488.145 DT     0080 Rx 0  
    156      3498.121 DT     0080 Rx 0  
    157      3508.098 DT     0080 Rx 0  
    158      3518.074 DT     0080 Rx 0  
    159      3528.052 DT     0080 Rx 0  
    160      3538.027 DT     0080 Rx 0  
    161      3548.004 DT     0080 Rx 0  
    162      3557.979 DT     0080 Rx 0  
    163      3567.953 DT     0080 Rx 0  
    164      3577.930 DT     0080 Rx 0  
    165      3587.905 DT     0080 Rx 0  
    166      3597.886 DT     0080 Rx 0  
    167      3607.863 DT     0080 Rx 0  
    168      3617.841 DT     0080 Rx 0  
    169      3627.818 DT     0080 Rx 0  
    170      3637.796 DT     0080 Rx 0  
    171      3647.773 DT     0080 Rx 0  
    172      3657.751 DT     0080 Rx 0  
    173      3667.731 DT     0080 Rx 0  
    174      3677.707 DT     0080 Rx 0  
    175      3687.683 DT     0080 Rx 0  
    176      3697.662 DT     0080 Rx 0  
    177      3707.635 DT     0080 Rx 0  
    178      3717.610 DT     0080 Rx 0  
    179      3727.583 DT     0080 Rx 0  
    180      3737.560 DT     0080 Rx 0  
    181      3747.534 DT     0080 Rx 0  
    182      3757.510 DT     0080 Rx 0  
    183      3767.489 DT     0080 Rx 0  
    184      3777.464 DT     0080 Rx 0  
    185      3787.441 DT     0080 Rx 0  
    186      3797.417 DT     0080 Rx 0  
    187      3807.393 DT     0080 Rx 0  
    188      3817.371 DT     0080 Rx 0  
    189      3827.347 DT     0080 Rx 0  
    190      3837.322 DT     0080 Rx 0  
    191      3847.296 DT     0080 Rx 0  
    192      3857.272 DT     0080 Rx 0  
    193      3867.248 DT     0080 Rx 0  
    194      3877.226 DT     0080 Rx 0  
    195      3887.203 DT     0080 Rx 0  
    196      3897.179 DT     0080 Rx 0  
    197      3907.156 DT     0080 Rx 0  
    198      3917.131 DT     0080 Rx 0  
    199      3927.106 DT     0080 Rx 0  
    200      3937.083 DT     0080 Rx 0  
    201      3947.058 DT     0080 Rx 0  
    202      3957.032 DT     0080 Rx 0  
    203      3967.009 DT     0080 Rx 0  
    204      3976.985 DT     0080 Rx 0  
    205      3986.959 DT     0080 Rx 0  
    206      3996.935 DT     0080 Rx 0  
    207      4006.909 DT     0080 Rx 0  
    208      4016.883 DT     0080 Rx 0  
    209      4026.856 DT     0080 Rx 0  
    210      4036.836 DT     0080 Rx 0  
    211      4046.812 DT     0080 Rx 0  
    212      4056.787 DT     0080 Rx 0  
    213      4066.763 DT     0080 Rx 0  
    214      4076.740 DT     0080 Rx 0  
    215      4086.716 DT     0080 Rx 0  
    216      4096.693 DT     0080 Rx 0  
    217      4106.670 DT     0080 Rx 0  
    218      4116.647 DT     0080 Rx 0  
    219      4126.624 DT     0080 Rx 0  
    220      4136.600 DT     0080 Rx 0  
    221      4146.577 DT     0080 Rx 0  
    222      4156.554 DT     0080 Rx 0  
    223      4166.531 DT     0080 Rx 0  
    224      4176.509 DT     0080 Rx 0  
    225      4186.487 DT     0080 Rx 0  
    226      4196.466 DT     0080 Rx 0  
    227      4206.343 DT     0080 Rx 0  
    228      4216.321 DT     0080 Rx 0  
    229      4226.298 DT     0080 Rx 0  
    230      4236.274 DT     0080 Rx 0  
    231      4246.250 DT     0080 Rx 0  
    232      4256.228 DT     0080 Rx 0  
    233      4266.205 DT     0080 Rx 0  
    234      4276.181 DT     0080 Rx 0  
    235      4286.157 DT     0080 Rx 0  
    236      4296.135 DT     0080 Rx 0  
    237      4306.112 DT     0080 Rx 0  
    238      4316.087 DT     0080 Rx 0  
    239      4326.063 DT     0080 Rx 0  
    240      4336.041 DT     0080 Rx 0  
    241      4346.018 DT     0080 Rx 0  
    242      4355.995 DT     0080 Rx 0  
    243      4365.970 DT     0080 Rx 0  
    244      4375.947 DT     0080 Rx 0  
    245      4385.922 DT     0080 Rx 0  
    246      4395.900 DT     0080 Rx 0  
    247      4405.875 DT     0080 Rx 0  
    248      4415.852 DT     0080 Rx 0  
    249      4425.829 DT     0080 Rx 0  
    250      4435.805 DT     0080 Rx 0  
    251      4445.779 DT     0080 Rx 0  
    252      4455.756 DT     0080 Rx 0  
    253      4465.732 DT     0080 Rx 0  
    254      4475.706 DT     0080 Rx 0  
    255      4485.685 DT     0080 Rx 0  
    256      4495.661 DT     0080 Rx 0  
    257      4505.635 DT     0080 Rx 0  
    258      4515.614 DT     0080 Rx 0  
    259      4525.592 DT     0080 Rx 0  
    260      4535.567 DT     0080 Rx 0  
    261      4545.540 DT     0080 Rx 0  
    262      4555.515 DT     0080 Rx 0  
    263      4565.494 DT     0080 Rx 0  
    264      4575.470 DT     0080 Rx 0  
    265      4585.446 DT     0080 Rx 0  
    266      4595.421 DT     0080 Rx 0  
    267      4605.398 DT     0080 Rx 0  
    268      4615.373 DT     0080 Rx 0  
    269      4625.352 DT     0080 Rx 0  
    270      4635.329 DT     0080 Rx 0  
    271      4645.306 DT     0080 Rx 0  
    272      4655.280 DT     0080 Rx 0  
    273      4665.258 DT     0080 Rx 0  
    274      4675.232 DT     0080 Rx 0  
    275      4685.208 DT     0080 Rx 0  
    276      4695.183 DT     0080 Rx 0  
    277      4705.161 DT     0080 Rx 0  
    278      4715.136 DT     0080 Rx 0  
    279      4725.111 DT     0080 Rx 0  
    280      4735.086 DT     0080 Rx 0  
    281      4745.065 DT     0080 Rx 0  
    282      4755.040 DT     0080 Rx 0  
    283      4765.017 DT     0080 Rx 0  
    284      4774.995 DT     0080 Rx 0  
    285      4784.972 DT     0080 Rx 0  
    286      4794.948 DT     0080 Rx 0  
    287      4804.926 DT     0080 Rx 0  
    288      4814.900 DT     0080 Rx 0  
    289      4824.877 DT     0080 Rx 0  
    290      4834.852 DT     0080 Rx 0  
    291      4844.828 DT     0080 Rx 0  
    292      4854.804 DT     0080 Rx 0  
    293      4864.781 DT     0080 Rx 0  
    294      4874.758 DT     0080 Rx 0  
    295      4884.734 DT     0080 Rx 0  
    296      4894.712 DT     0080 Rx 0  
    297      4904.689 DT     0080 Rx 0  
    298      4914.665 DT     0080 Rx 0  
    299      4924.641 DT     0080 Rx 0  
    300      4934.619 DT     0080 Rx 0  
    301      4944.598 DT     0080 Rx 0  
    302      4954.573 DT     0080 Rx 0  
    303      4964.550 DT     0080 Rx 0  
    304      4974.527 DT     0080 Rx 0  
    305      4984.506 DT     0080 Rx 0  
    306      4994.482 DT     0080 Rx 0  
    307      5004.458 DT     0080 Rx 0  
    308      5014.437 DT     0080 Rx 0  
    309      5024.413 DT     0080 Rx 0  
    310      5034.390 DT     0080 Rx 0  
    311      5044.369 DT     0080 Rx 0  
    312      5054.345 DT     0080 Rx 0  
    313      5064.323 DT     0080 Rx 0  
    314      5074.301 DT     0080 Rx 0  
    315      5084.278 DT     0080 Rx 0  
    316      5094.254 DT     0080 Rx 0  
    317      5104.231 DT     0080 Rx 0  
    318      5114.209 DT     0080 Rx 0  
    319      5124.188 DT     0080 Rx 0  
    320      5134.165 DT     0080 Rx 0  
    321      5144.143 DT     0080 Rx 0  
    322      5154.116 DT     0080 Rx 0  
    323      5164.093 DT     0080 Rx 0  
    324      5174.069 DT     0080 Rx 0  
    325      5184.048 DT     0080 Rx 0  
    326      5194.025 DT     0080 Rx 0  
    327      5203.900 DT     0080 Rx 0  
    328      5213.875 DT     0080 Rx 0  
    329      5223.851 DT     0080 Rx 0  
    330      5233.828 DT     0080 Rx 0  
    331      5243.803 DT     0080 Rx 0  
    332      5253.779 DT     0080 Rx 0  
    333      5263.754 DT     0080 Rx 0  
    334      5273.728 DT     0080 Rx 0  
    335      5283.701 DT     0080 Rx 0  
    336      5293.674 DT     0080 Rx 0  
    337      5303.647 DT     0080 Rx 0  
    338      5313.624 DT     0080 Rx 0  
    339      5323.602 DT     0080 Rx 0  
    340      5333.575 DT     0080 Rx 0  
    341      5343.553 DT     0080 Rx 0  
    342      5353.530 DT     0080 Rx 0  
    343      5363.508 DT     0080 Rx 0  
    344      5373.484 DT     0080 Rx 0  
    345      5383.461 DT     0080 Rx 0  
    346      5393.437 DT     0080 Rx 0  
    347      5403.411 DT     0080 Rx 0  
    348      5413.387 DT     0080 Rx 0  
    349      5423.364 DT     0080 Rx 0  
    350      5433.341 DT     0080 Rx 0  
    351      5443.317 DT     0080 Rx 0  
    352      5453.292 DT     0080 Rx 0  
    353      5463.269 DT     0080 Rx 0  
    354      5473.245 DT     0080 Rx 0  
    355      5483.220 DT     0080 Rx 0  
    356      5493.195 DT     0080 Rx 0  
    357      5503.171 DT     0080 Rx 0  
    358      5513.146 DT     0080 Rx 0  
    359      5523.122 DT     0080 Rx 0  
    360      5533.100 DT     0080 Rx 0  
    361      5543.078 DT     0080 Rx 0  
    362      5553.052 DT     0080 Rx 0  
    363      5563.030 DT     0080 Rx 0  
    364      5573.006 DT     0080 Rx 0  
    365      5582.982 DT     0080 Rx 0  
    366      5592.959 DT     0080 Rx 0  
    367      5602.935 DT     0080 Rx 0  
    368      5612.911 DT     0080 Rx 0  
    369      5622.889 DT     0080 Rx 0  
    370      5632.863 DT     0080 Rx 0  
    371      5642.840 DT     0080 Rx 0  
    372      5652.814 DT     0080 Rx 0  
    373      5662.791 DT     0080 Rx 0  
    374      5672.767 DT     0080 Rx 0  
    375      5682.743 DT     0080 Rx 0  
    376      5692.721 DT     0080 Rx 0  
    377      5702.699 DT     0080 Rx 0  
    378      5712.676 DT     0080 Rx 0  
    379      5722.651 DT     0080 Rx 0  
    380      5732.629 DT     0080 Rx 0  
    381      5742.605 DT     0080 Rx 0  
    382      5752.581 DT     0080 Rx 0  
    383      5762.558 DT     0080 Rx 0  
    384      5772.534 DT     0080 Rx 0  
    385      5782.512 DT     0080 Rx 0  
    386      5792.488 DT     0080 Rx 0  
    387      5802.465 DT     0080 Rx 0  
    388      5812.441 DT     0080 Rx 0  
    389      5822.417 DT     0080 Rx 0  
    390      5832.392 DT     0080 Rx 0  
    391      5842.367 DT     0080 Rx 0  
    392      5852.343 DT     0080 Rx 0  
    393      5862.317 DT     0080 Rx 0  
    394      5872.293 DT     0080 Rx 0  
    395      5882.269 DT     0080 Rx 0  
    396      5892.245 DT     0080 Rx 0  
    397      5902.220 DT     0080 Rx 0  
    398      5905.293 DT     0601 Rx 8  40 00 10 00 00 00 00 00 
    399      5905.558 DT     0581 Rx 8  43 00 10 00 92 01 06 00 
    400      5911.272 DT     0601 Rx 8  2B 17 10 00 E8 03 01 00 
    401      5911.553 DT     0581 Rx 8  60 17 10 00 00 00 00 00 
    402      5911.620 DT     0701 Rx 1  7F 
    403      5912.197 DT     0080 Rx 0  
    404      5917.260 DT     0601 Rx 8  2F 00 16 00 00 00 90 EC 
    405      5917.638 DT     0581 Rx 8  60 00 16 00 00 00 00 00 
    406      5921.246 DT     0601 Rx 8  23 00 16 01 10 00 40 60 
    407      5921.560 DT     0581 Rx 8  60 00 16 01 00 00 00 00 
    408      5922.172 DT     0080 Rx 0  
    409      5927.231 DT     0601 Rx 8  23 00 16 02 20 00 7A 60 
    410      5927.565 DT     0581 Rx 8  60 00 16 02 00 00 00 00 
    411      5932.144 DT     0080 Rx 0  
    412      5933.215 DT     0601 Rx 8  2F 00 16 00 02 00 F6 A8 
    413      5933.926 DT     0581 Rx 8  60 00 16 00 00 00 00 00 
    414      5937.205 DT     0601 Rx 8  2F 01 16 00 00 00 F6 A8 
    415      5937.585 DT     0581 Rx 8  60 01 16 00 00 00 00 00 
    416      5942.117 DT     0080 Rx 0  
    417      5943.191 DT     0601 Rx 8  23 01 16 01 20 01 C1 60 
    418      5943.423 DT     0581 Rx 8  60 01 16 01 00 00 00 00 
    419      5949.175 DT     0601 Rx 8  23 01 16 02 20 02 C1 60 
    420      5949.530 DT     0581 Rx 8  60 01 16 02 00 00 00 00 
    421      5952.094 DT     0080 Rx 0  
    422      5953.164 DT     0601 Rx 8  2F 01 16 00 02 00 F6 A8 
    423      5953.899 DT     0581 Rx 8  60 01 16 00 00 00 00 00 
    424      5959.150 DT     0601 Rx 8  2F 02 16 00 00 00 F6 A8 
    425      5959.522 DT     0581 Rx 8  60 02 16 00 00 00 00 00 
    426      5962.068 DT     0080 Rx 0  
    427      5967.130 DT     0601 Rx 8  2F 02 16 00 00 00 F6 A8 
    428      5967.398 DT     0581 Rx 8  60 02 16 00 00 00 00 00 
    429      5972.041 DT     0080 Rx 0  
    430      5977.100 DT     0601 Rx 8  2F 03 16 00 00 00 F6 A8 
    431      5977.527 DT     0581 Rx 8  60 03 16 00 00 00 00 00 
    432      5982.016 DT     0080 Rx 0  
    433      5983.088 DT     0601 Rx 8  2F 03 16 00 00 00 F6 A8 
    434      5983.529 DT     0581 Rx 8  60 03 16 00 00 00 00 00 
    435      5989.071 DT     0601 Rx 8  2F 00 1A 00 00 00 F6 A8 
    436      5989.372 DT     0581 Rx 8  60 00 1A 00 00 00 00 00 
    437      5991.992 DT     0080 Rx 0  
    438      5997.051 DT     0601 Rx 8  23 00 1A 01 10 00 72 20 
    439      5997.339 DT     0581 Rx 8  60 00 1A 01 00 00 00 00 
    440      6001.965 DT     0080 Rx 0  
    441      6003.036 DT     0601 Rx 8  23 00 1A 02 10 00 41 60 
    442      6003.281 DT     0581 Rx 8  60 00 1A 02 00 00 00 00 
    443      6007.027 DT     0601 Rx 8  23 00 1A 03 20 00 64 60 
    444      6007.312 DT     0581 Rx 8  60 00 1A 03 00 00 00 00 
    445      6011.940 DT     0080 Rx 0  
    446      6013.009 DT     0601 Rx 8  2F 00 1A 00 03 00 F6 A8 
    447      6013.885 DT     0581 Rx 8  60 00 1A 00 00 00 00 00 
    448      6018.997 DT     0601 Rx 8  2F 01 1A 00 00 00 F6 A8 
    449      6019.374 DT     0581 Rx 8  60 01 1A 00 00 00 00 00 
    450      6021.914 DT     0080 Rx 0  
    451      6024.980 DT     0601 Rx 8  23 01 1A 01 20 01 C1 60 
    452      6025.309 DT     0581 Rx 8  60 01 1A 01 00 00 00 00 
    453      6028.971 DT     0601 Rx 8  23 01 1A 02 20 00 6C 60 
    454      6029.265 DT     0581 Rx 8  60 01 1A 02 00 00 00 00 
    455      6031.890 DT     0080 Rx 0  
    456      6034.956 DT     0601 Rx 8  2F 01 1A 00 02 00 F6 A8 
    457      6035.689 DT     0581 Rx 8  60 01 1A 00 00 00 00 00 
    458      6038.949 DT     0601 Rx 8  2F 02 1A 00 00 00 F6 A8 
    459      6039.296 DT     0581 Rx 8  60 02 1A 00 00 00 00 00 
    460      6041.868 DT     0080 Rx 0  
    461      6044.933 DT     0601 Rx 8  2F 02 1A 00 00 00 F6 A8 
    462      6045.241 DT     0581 Rx 8  60 02 1A 00 00 00 00 00 
    463      6050.921 DT     0601 Rx 8  2F 03 1A 00 00 00 F6 A8 
    464      6051.232 DT     0581 Rx 8  60 03 1A 00 00 00 00 00 
    465      6051.845 DT     0080 Rx 0  
    466      6056.907 DT     0601 Rx 8  2F 03 1A 00 00 00 F6 A8 
    467      6057.241 DT     0581 Rx 8  60 03 1A 00 00 00 00 00 
    468      6061.822 DT     0080 Rx 0  
    469      6071.799 DT     0080 Rx 0  
    470      6081.775 DT     0080 Rx 0  
    471      6091.750 DT     0080 Rx 0  
    472      6101.725 DT     0080 Rx 0  
    473      6111.700 DT     0080 Rx 0  
    474      6121.678 DT     0080 Rx 0  
    475      6131.655 DT     0080 Rx 0  
    476      6141.632 DT     0080 Rx 0  
    477      6151.608 DT     0080 Rx 0  
    478      6161.584 DT     0080 Rx 0  
    479      6171.560 DT     0080 Rx 0  
    480      6181.535 DT     0080 Rx 0  
    481      6191.511 DT     0080 Rx 0  
    482      6201.389 DT     0080 Rx 0  
    483      6211.364 DT     0080 Rx 0  
    484      6221.339 DT     0080 Rx 0  
    485      6231.315 DT     0080 Rx 0  
    486      6241.290 DT     0080 Rx 0  
    487      6251.264 DT     0080 Rx 0  
    488      6261.241 DT     0080 Rx 0  
    489      6271.215 DT     0080 Rx 0  
    490      6281.191 DT     0080 Rx 0  
    491      6291.166 DT     0080 Rx 0  
    492      6301.143 DT     0080 Rx 0  
    493      6311.119 DT     0080 Rx 0  
    494      6321.095 DT     0080 Rx 0  
    495      6331.070 DT     0080 Rx 0  
    496      6341.049 DT     0080 Rx 0  
    497      6351.024 DT     0080 Rx 0  
    498      6361.001 DT     0080 Rx 0  
    499      6370.977 DT     0080 Rx 0  
    500      6380.954 DT     0080 Rx 0  
    501      6390.931 DT     0080 Rx 0  
    502      6400.907 DT     0080 Rx 0  
    503      6410.884 DT     0080 Rx 0  
    504      6420.862 DT     0080 Rx 0  
    505      6430.837 DT     0080 Rx 0  
    506      6440.812 DT     0080 Rx 0  
    507      6450.787 DT     0080 Rx 0  
    508      6460.761 DT     0080 Rx 0  
    509      6470.736 DT     0080 Rx 0  
    510      6480.709 DT     0080 Rx 0  
    511      6490.686 DT     0080 Rx 0  
    512      6500.664 DT     0080 Rx 0  
    513      6510.641 DT     0080 Rx 0  
    514      6520.615 DT     0080 Rx 0  
    515      6530.592 DT     0080 Rx 0  
    516      6540.569 DT     0080 Rx 0  
    517      6550.545 DT     0080 Rx 0  
    518      6560.521 DT     0080 Rx 0  
    519      6570.498 DT     0080 Rx 0  
    520      6580.474 DT     0080 Rx 0  
    521      6590.451 DT     0080 Rx 0  
    522      6600.426 DT     0080 Rx 0  
    523      6610.404 DT     0080 Rx 0  
    524      6620.379 DT     0080 Rx 0  
    525      6630.357 DT     0080 Rx 0  
    526      6640.332 DT     0080 Rx 0  
    527      6650.307 DT     0080 Rx 0  
    528      6660.284 DT     0080 Rx 0  
    529      6670.258 DT     0080 Rx 0  
    530      6680.235 DT     0080 Rx 0  
    531      6690.210 DT     0080 Rx 0  
    532      6700.183 DT     0080 Rx 0  
    533      6710.159 DT     0080 Rx 0  
    534      6720.136 DT     0080 Rx 0  
    535      6730.110 DT     0080 Rx 0  
    536      6740.087 DT     0080 Rx 0  
    537      6750.060 DT     0080 Rx 0  
    538      6760.034 DT     0080 Rx 0  
    539      6770.010 DT     0080 Rx 0  
    540      6779.983 DT     0080 Rx 0  
    541      6789.958 DT     0080 Rx 0  
    542      6799.935 DT     0080 Rx 0  
    543      6809.911 DT     0080 Rx 0  
    544      6819.884 DT     0080 Rx 0  
    545      6829.859 DT     0080 Rx 0  
    546      6839.835 DT     0080 Rx 0  
    547      6849.807 DT     0080 Rx 0  
    548      6859.783 DT     0080 Rx 0  
    549      6869.756 DT     0080 Rx 0  
    550      6879.730 DT     0080 Rx 0  
    551      6889.705 DT     0080 Rx 0  
    552      6899.682 DT     0080 Rx 0  
    553      6909.657 DT     0080 Rx 0  
    554      6910.818 DT     0701 Rx 1  7F 
    555      6919.633 DT     0080 Rx 0  
    556      6929.609 DT     0080 Rx 0  
    557      6939.583 DT     0080 Rx 0  
    558      6949.559 DT     0080 Rx 0  
    559      6959.535 DT     0080 Rx 0  
    560      6969.510 DT     0080 Rx 0  
    561      6979.486 DT     0080 Rx 0  
    562      6989.462 DT     0080 Rx 0  
    563      6999.438 DT     0080 Rx 0  
    564      7009.413 DT     0080 Rx 0  
    565      7019.386 DT     0080 Rx 0  
    566      7029.362 DT     0080 Rx 0  
    567      7039.340 DT     0080 Rx 0  
    568      7049.313 DT     0080 Rx 0  
    569      7059.286 DT     0080 Rx 0  
    570      7069.261 DT     0080 Rx 0  
    571      7079.238 DT     0080 Rx 0  
    572      7089.214 DT     0080 Rx 0  
    573      7099.188 DT     0080 Rx 0  
    574      7109.162 DT     0080 Rx 0  
    575      7119.136 DT     0080 Rx 0  
    576      7129.114 DT     0080 Rx 0  
    577      7139.090 DT     0080 Rx 0  
    578      7149.068 DT     0080 Rx 0  
    579      7159.041 DT     0080 Rx 0  
    580      7169.018 DT     0080 Rx 0  
    581      7178.995 DT     0080 Rx 0  
    582      7188.970 DT     0080 Rx 0  
    583      7198.846 DT     0080 Rx 0  
    584      7208.823 DT     0080 Rx 0  
    585      7218.800 DT     0080 Rx 0  
    586      7228.773 DT     0080 Rx 0  
    587      7238.749 DT     0080 Rx 0  
    588      7248.724 DT     0080 Rx 0  
    589      7258.698 DT     0080 Rx 0  
    590      7268.674 DT     0080 Rx 0  
    591      7278.649 DT     0080 Rx 0  
    592      7288.624 DT     0080 Rx 0  
    593      7298.598 DT     0080 Rx 0  
    594      7308.574 DT     0080 Rx 0  
    595      7318.553 DT     0080 Rx 0  
    596      7328.531 DT     0080 Rx 0  
    597      7338.507 DT     0080 Rx 0  
    598      7348.481 DT     0080 Rx 0  
    599      7358.458 DT     0080 Rx 0  
    600      7368.433 DT     0080 Rx 0  
    601      7378.410 DT     0080 Rx 0  
    602      7388.386 DT     0080 Rx 0  
    603      7398.358 DT     0080 Rx 0  
    604      7408.335 DT     0080 Rx 0  
    605      7418.312 DT     0080 Rx 0  
    606      7428.285 DT     0080 Rx 0  
    607      7438.262 DT     0080 Rx 0  
    608      7448.238 DT     0080 Rx 0  
    609      7458.215 DT     0080 Rx 0  
    610      7468.190 DT     0080 Rx 0  
    611      7478.165 DT     0080 Rx 0  
    612      7488.143 DT     0080 Rx 0  
    613      7498.118 DT     0080 Rx 0  
    614      7508.092 DT     0080 Rx 0  
    615      7518.067 DT     0080 Rx 0  
    616      7528.043 DT     0080 Rx 0  
    617      7538.021 DT     0080 Rx 0  
    618      7547.995 DT     0080 Rx 0  
    619      7557.970 DT     0080 Rx 0  
    620      7567.944 DT     0080 Rx 0  
    621      7577.920 DT     0080 Rx 0  
    622      7587.896 DT     0080 Rx 0  
    623      7592.909 DT     0000 Rx 2  01 00 
    624      7593.361 DT     0181 Rx 8  00 80 50 02 77 FF 01 00 
    625      7593.487 DT     0281 Rx 8  00 00 00 00 00 00 00 00 
    626      7597.870 DT     0080 Rx 0  
    627      7607.847 DT     0080 Rx 0  
    628      7617.822 DT     0080 Rx 0  
    629      7627.797 DT     0080 Rx 0  
    630      7637.774 DT     0080 Rx 0  
    631      7647.750 DT     0080 Rx 0  
    632      7657.728 DT     0080 Rx 0  
    633      7667.701 DT     0080 Rx 0  
    634      7668.327 DT     0281 Rx 8  00 00 00 00 E8 03 00 00 
    635      7668.508 DT     0181 Rx 8  00 80 50 02 78 FF 01 00 
    636      7677.678 DT     0080 Rx 0  
    637      7687.652 DT     0080 Rx 0  
    638      7697.629 DT     0080 Rx 0  
    639      7698.268 DT     0181 Rx 8  00 80 50 02 77 FF 01 00 
    640      7698.395 DT     0281 Rx 8  00 00 00 00 00 00 00 00 
    641      7707.605 DT     0080 Rx 0  
    642      7717.583 DT     0080 Rx 0  
    643      7727.560 DT     0080 Rx 0  
    644      7737.535 DT     0080 Rx 0  
    645      7747.513 DT     0080 Rx 0  
    646      7757.489 DT     0080 Rx 0  
    647      7767.468 DT     0080 Rx 0  
    648      7777.444 DT     0080 Rx 0  
    649      7787.419 DT     0080 Rx 0  
    650      7797.396 DT     0080 Rx 0  
    651      7807.371 DT     0080 Rx 0  
    652      7817.346 DT     0080 Rx 0  
    653      7827.321 DT     0080 Rx 0  
    654      7837.297 DT     0080 Rx 0  
    655      7847.273 DT     0080 Rx 0  
    656      7857.249 DT     0080 Rx 0  
    657      7867.223 DT     0080 Rx 0  
    658      7877.199 DT     0080 Rx 0  
    659      7887.176 DT     0080 Rx 0  
    660      7897.150 DT     0080 Rx 0  
    661      7901.232 DT     0181 Rx 8  00 80 50 02 78 FF 01 00 
    662      7901.356 DT     0281 Rx 8  00 00 00 00 E8 03 00 00 
    663      7907.122 DT     0080 Rx 0  
    664      7910.075 DT     0701 Rx 1  05 
    665      7917.096 DT     0080 Rx 0  
    666      7927.072 DT     0080 Rx 0  
    667      7931.154 DT     0181 Rx 8  00 80 50 02 77 FF 01 00 
    668      7931.282 DT     0281 Rx 8  00 00 00 00 00 00 00 00 
    669      7937.047 DT     0080 Rx 0  
    670      7947.023 DT     0080 Rx 0  
    671      7956.998 DT     0080 Rx 0  
    672      7966.975 DT     0080 Rx 0  
    673      7976.951 DT     0080 Rx 0  
    674      7986.926 DT     0080 Rx 0  
    675      7996.902 DT     0080 Rx 0  
    676      8006.877 DT     0080 Rx 0  
    677      8016.851 DT     0080 Rx 0  
    678      8026.826 DT     0080 Rx 0  
    679      8036.800 DT     0080 Rx 0  
    680      8046.777 DT     0080 Rx 0  
    681      8056.753 DT     0080 Rx 0  
    682      8066.727 DT     0080 Rx 0  
    683      8074.102 DT     0181 Rx 8  00 80 50 02 76 FF 01 00 
    684      8074.224 DT     0281 Rx 8  00 00 00 00 18 FC FF FF 
    685      8076.702 DT     0080 Rx 0  
    686      8086.677 DT     0080 Rx 0  
    687      8096.654 DT     0080 Rx 0  
    688      8104.194 DT     0181 Rx 8  00 80 50 02 77 FF 01 00 
    689      8104.321 DT     0281 Rx 8  00 00 00 00 00 00 00 00 
    690      8106.627 DT     0080 Rx 0  
    691      8116.603 DT     0080 Rx 0  
    692      8126.580 DT     0080 Rx 0  
    693      8136.087 DT     0181 Rx 8  00 80 50 02 78 FF 01 00 
    694      8136.209 DT     0281 Rx 8  00 00 00 00 E8 03 00 00 
    695      8136.553 DT     0080 Rx 0  
    696      8146.527 DT     0080 Rx 0  
    697      8156.503 DT     0080 Rx 0  
    698      8166.086 DT     0181 Rx 8  00 80 50 02 78 FF 01 00 
    699      8166.211 DT     0281 Rx 8  00 00 00 00 00 00 00 00 
    700      8166.481 DT     0080 Rx 0  
    701      8176.456 DT     0080 Rx 0  
    702      8186.433 DT     0080 Rx 0  
    703      8196.408 DT     0080 Rx 0  
    704      8202.048 DT     0181 Rx 8  00 80 50 02 77 FF 01 00 
    705      8202.171 DT     0281 Rx 8  00 00 00 00 18 FC FF FF 
    706      8206.284 DT     0080 Rx 0  
    707      8216.259 DT     0080 Rx 0  
    708      8226.236 DT     0080 Rx 0  
    709      8232.022 DT     0181 Rx 8  00 80 50 02 78 FF 01 00 
    710      8232.147 DT     0281 Rx 8  00 00 00 00 E8 03 00 00 
    711      8236.213 DT     0080 Rx 0  
    712      8246.190 DT     0080 Rx 0  
    713      8256.165 DT     0080 Rx 0  
    714      8261.900 DT     0181 Rx 8  00 80 50 02 77 FF 01 00 
    715      8262.024 DT     0281 Rx 8  00 00 00 00 00 00 00 00 
    716      8266.144 DT     0080 Rx 0  
    717      8276.120 DT     0080 Rx 0  
    718      8286.095 DT     0080 Rx 0  
    719      8291.915 DT     0181 Rx 8  00 80 50 02 77 FF 01 00 
    720      8292.042 DT     0281 Rx 8  00 00 00 00 00 00 00 00 
    721      8296.074 DT     0080 Rx 0  
    722      8306.050 DT     0080 Rx 0  
    723      8316.027 DT     0080 Rx 0  
    724      8321.872 DT     0181 Rx 8  00 80 50 02 78 FF 01 00 
    725      8321.995 DT     0281 Rx 8  00 00 00 00 00 00 00 00 
    726      8326.003 DT     0080 Rx 0  
    727      8335.979 DT     0080 Rx 0  
    728      8345.955 DT     0080 Rx 0  
    729      8355.935 DT     0080 Rx 0  
    730      8365.910 DT     0080 Rx 0  
    731      8375.885 DT     0080 Rx 0  
    732      8385.860 DT     0080 Rx 0  
    733      8395.837 DT     0080 Rx 0  
    734      8405.812 DT     0080 Rx 0  
    735      8410.917 DT     0181 Rx 8  00 80 50 02 77 FF 01 00 
    736      8411.040 DT     0281 Rx 8  00 00 00 00 18 FC FF FF 
    737      8415.788 DT     0080 Rx 0  
    738      8425.762 DT     0080 Rx 0  
    739      8435.739 DT     0080 Rx 0  
    740      8440.824 DT     0181 Rx 8  00 80 50 02 78 FF 01 00 
    741      8440.953 DT     0281 Rx 8  00 00 00 00 00 00 00 00 
    742      8445.713 DT     0080 Rx 0  
    743      8455.689 DT     0080 Rx 0  
    744      8465.663 DT     0080 Rx 0  
    745      8470.702 DT     0181 Rx 8  00 80 50 02 77 FF 01 00 
    746      8470.828 DT     0281 Rx 8  00 00 00 00 00 00 00 00 
    747      8475.639 DT     0080 Rx 0  
    748      8485.615 DT     0080 Rx 0  
    749      8495.589 DT     0080 Rx 0  
    750      8505.566 DT     0080 Rx 0  
    751      8515.543 DT     0080 Rx 0  
    752      8525.519 DT     0080 Rx 0  
    753      8535.492 DT     0080 Rx 0  
    754      8544.752 DT     0181 Rx 8  00 80 50 02 78 FF 01 00 
    755      8544.876 DT     0281 Rx 8  00 00 00 00 E8 03 00 00 
    756      8545.469 DT     0080 Rx 0  
    757      8555.443 DT     0080 Rx 0  
    758      8565.419 DT     0080 Rx 0  
    759      8574.740 DT     0181 Rx 8  00 80 50 02 78 FF 01 00 
    760      8574.865 DT     0281 Rx 8  00 00 00 00 00 00 00 00 
    761      8575.395 DT     0080 Rx 0  
    762      8585.368 DT     0080 Rx 0  
    763      8595.345 DT     0080 Rx 0  
    764      8605.318 DT     0080 Rx 0  
    765      8615.294 DT     0080 Rx 0  
    766      8620.794 DT     0181 Rx 8  00 80 50 02 77 FF 01 00 
    767      8620.916 DT     0281 Rx 8  00 00 00 00 18 FC FF FF 
    768      8625.269 DT     0080 Rx 0  
    769      8635.246 DT     0080 Rx 0  
    770      8645.222 DT     0080 Rx 0  
    771      8650.655 DT     0181 Rx 8  00 80 50 02 78 FF 01 00 
    772      8650.783 DT     0281 Rx 8  00 00 00 00 00 00 00 00 
    773      8655.196 DT     0080 Rx 0  
    774      8665.169 DT     0080 Rx 0  
    775      8675.143 DT     0080 Rx 0  
    776      8685.119 DT     0080 Rx 0  
    777      8695.092 DT     0080 Rx 0  
    778      8705.067 DT     0080 Rx 0  
    779      8715.045 DT     0080 Rx 0  
    780      8725.021 DT     0080 Rx 0  
    781      8734.997 DT     0080 Rx 0  
    782      8744.974 DT     0080 Rx 0  
    783      8754.947 DT     0080 Rx 0  
    784      8764.922 DT     0080 Rx 0  
    785      8774.897 DT     0080 Rx 0  
    786      8784.869 DT     0080 Rx 0  
    787      8790.561 DT     0181 Rx 8  00 80 50 02 77 FF 01 00 
    788      8790.685 DT     0281 Rx 8  00 00 00 00 18 FC FF FF 
    789      8794.845 DT     0080 Rx 0  
    790      8804.818 DT     0080 Rx 0  
    791      8814.794 DT     0080 Rx 0  
    792      8820.571 DT     0181 Rx 8  00 80 50 02 78 FF 01 00 
    793      8820.695 DT     0281 Rx 8  00 00 00 00 E8 03 00 00 
    794      8824.768 DT     0080 Rx 0  
    795      8834.740 DT     0080 Rx 0  
    796      8844.714 DT     0080 Rx 0  
    797      8850.477 DT     0181 Rx 8  00 80 50 02 78 FF 01 00 
    798      8850.604 DT     0281 Rx 8  00 00 00 00 00 00 00 00 
    799      8854.686 DT     0080 Rx 0  
    800      8864.659 DT     0080 Rx 0  
    801      8874.633 DT     0080 Rx 0  
    802      8880.449 DT     0181 Rx 8  00 80 50 02 77 FF 01 00 
    803      8880.574 DT     0281 Rx 8  00 00 00 00 00 00 00 00 
    804      8884.607 DT     0080 Rx 0  
    805      8894.578 DT     0080 Rx 0  
    806      8904.551 DT     0080 Rx 0  
    807      8909.373 DT     0701 Rx 1  05 
    808      8910.502 DT     0181 Rx 8  00 80 50 02 77 FF 01 00 
    809      8910.627 DT     0281 Rx 8  00 00 00 00 00 00 00 00 
    810      8914.527 DT     0080 Rx 0  
    811      8924.500 DT     0080 Rx 0  
    812      8934.477 DT     0080 Rx 0  
    813      8940.468 DT     0181 Rx 8  00 80 50 02 78 FF 01 00 
    814      8940.594 DT     0281 Rx 8  00 00 00 00 00 00 00 00 
    815      8944.451 DT     0080 Rx 0  
    816      8954.430 DT     0080 Rx 0  
    817      8964.404 DT     0080 Rx 0  
    818      8974.376 DT     0080 Rx 0  
    819      8984.349 DT     0080 Rx 0  
    820      8994.324 DT     0080 Rx 0  
    821      9000.446 DT     0181 Rx 8  00 80 50 02 79 FF 01 00 
    822      9000.570 DT     0281 Rx 8  00 00 00 00 E8 03 00 00 
    823      9004.298 DT     0080 Rx 0  
    824      9014.271 DT     0080 Rx 0  
    825      9024.242 DT     0080 Rx 0  
    826      9030.443 DT     0181 Rx 8  00 80 50 02 78 FF 01 00 
    827      9030.568 DT     0281 Rx 8  00 00 00 00 00 00 00 00 
    828      9034.217 DT     0080 Rx 0  
    829      9044.194 DT     0080 Rx 0  
    830      9054.167 DT     0080 Rx 0  
    831      9060.514 DT     0181 Rx 8  00 80 50 02 79 FF 01 00 
    832      9060.636 DT     0281 Rx 8  00 00 00 00 E8 03 00 00 
    833      9064.138 DT     0080 Rx 0  
    834      9074.116 DT     0080 Rx 0  
    835      9084.092 DT     0080 Rx 0  
    836      9090.330 DT     0181 Rx 8  00 80 50 02 79 FF 01 00 
    837      9090.457 DT     0281 Rx 8  00 00 00 00 00 00 00 00 
    838      9094.065 DT     0080 Rx 0  
    839      9104.040 DT     0080 Rx 0  
    840      9114.015 DT     0080 Rx 0  
    841      9120.420 DT     0181 Rx 8  00 80 50 02 78 FF 01 00 
    842      9120.545 DT     0281 Rx 8  00 00 00 00 00 00 00 00 
    843      9123.991 DT     0080 Rx 0  
    844      9133.966 DT     0080 Rx 0  
    845      9143.941 DT     0080 Rx 0  
    846      9153.917 DT     0080 Rx 0  
    847      9163.893 DT     0080 Rx 0  
    848      9173.867 DT     0080 Rx 0  
    849      9183.842 DT     0080 Rx 0  
    850      9193.820 DT     0080 Rx 0  
    851      9203.693 DT     0080 Rx 0  
    852      9213.668 DT     0080 Rx 0  
    853      9216.726 DT     0201 Rx 6  06 00 00 00 00 00 
    854      9217.344 DT     0181 Rx 8  00 80 50 03 78 FF 01 00 
    855      9220.715 DT     0201 Rx 6  07 00 00 00 00 00 
    856      9222.710 DT     0201 Rx 6  0F 00 00 00 00 00 
    857      9223.644 DT     0080 Rx 0  
    858      9233.619 DT     0080 Rx 0  
    859      9243.594 DT     0080 Rx 0  
    860      9247.145 DT     0181 Rx 8  00 80 33 03 78 FF 01 00 
    861      9253.570 DT     0080 Rx 0  
    862      9263.545 DT     0080 Rx 0  
    863      9273.522 DT     0080 Rx 0  
    864      9283.499 DT     0080 Rx 0  
    865      9293.476 DT     0080 Rx 0  
    866      9301.315 DT     0181 Rx 8  00 80 33 82 78 FF 01 00 
    867      9303.450 DT     0080 Rx 0  
    868      9307.184 DT     0281 Rx 8  00 00 00 00 18 FC FF FF 
    869      9313.427 DT     0080 Rx 0  
    870      9323.403 DT     0080 Rx 0  
    871      9331.170 DT     0181 Rx 8  00 80 37 86 77 FF 01 00 
    872      9333.375 DT     0080 Rx 0  
    873      9337.183 DT     0281 Rx 8  00 00 00 00 00 00 00 00 
    874      9343.350 DT     0080 Rx 0  
    875      9353.328 DT     0080 Rx 0  
    876      9363.301 DT     0080 Rx 0  
    877      9373.279 DT     0080 Rx 0  
    878      9374.292 DT     0181 Rx 8  00 80 37 86 76 FF 01 00 
    879      9374.414 DT     0281 Rx 8  00 00 00 00 18 FC FF FF 
    880      9383.253 DT     0080 Rx 0  
    881      9393.231 DT     0080 Rx 0  
    882      9403.208 DT     0080 Rx 0  
    883      9404.118 DT     0181 Rx 8  00 80 37 86 77 FF 01 00 
    884      9404.245 DT     0281 Rx 8  00 00 00 00 00 00 00 00 
    885      9413.186 DT     0080 Rx 0  
    886      9423.162 DT     0080 Rx 0  
    887      9433.141 DT     0080 Rx 0  
    888      9434.103 DT     0181 Rx 8  00 80 37 86 76 FF 01 00 
    889      9434.228 DT     0281 Rx 8  00 00 00 00 E8 03 00 00 
    890      9443.118 DT     0080 Rx 0  
    891      9453.092 DT     0080 Rx 0  
    892      9463.070 DT     0080 Rx 0  
    893      9464.092 DT     0181 Rx 8  00 80 37 86 76 FF 01 00 
    894      9464.217 DT     0281 Rx 8  00 00 00 00 18 FC FF FF 
    895      9473.049 DT     0080 Rx 0  
    896      9483.025 DT     0080 Rx 0  
    897      9493.001 DT     0080 Rx 0  
    898      9494.065 DT     0181 Rx 8  00 80 37 86 77 FF 01 00 
    899      9494.190 DT     0281 Rx 8  00 00 00 00 00 00 00 00 
    900      9502.978 DT     0080 Rx 0  
    901      9512.955 DT     0080 Rx 0  
    902      9522.933 DT     0080 Rx 0  
    903      9524.015 DT     0181 Rx 8  00 80 37 86 77 FF 01 00 
    904      9524.142 DT     0281 Rx 8  00 00 00 00 00 00 00 00 
    905      9532.909 DT     0080 Rx 0  
    906      9542.885 DT     0080 Rx 0  
    907      9552.862 DT     0080 Rx 0  
    908      9562.837 DT     0080 Rx 0  
    909      9572.814 DT     0080 Rx 0  
    910      9577.163 DT     0181 Rx 8  00 80 37 86 78 FF 01 00 
    911      9577.287 DT     0281 Rx 8  00 00 00 00 E8 03 00 00 
    912      9582.789 DT     0080 Rx 0  
    913      9592.768 DT     0080 Rx 0  
    914      9602.745 DT     0080 Rx 0  
    915      9606.977 DT     0181 Rx 8  00 80 37 86 78 FF 01 00 
    916      9607.104 DT     0281 Rx 8  00 00 00 00 00 00 00 00 
    917      9612.721 DT     0080 Rx 0  
    918      9622.699 DT     0080 Rx 0  
    919      9632.676 DT     0080 Rx 0  
    920      9636.969 DT     0181 Rx 8  00 80 37 86 78 FF 01 00 
    921      9637.091 DT     0281 Rx 8  00 00 00 00 18 FC FF FF 
    922      9642.653 DT     0080 Rx 0  
    923      9652.630 DT     0080 Rx 0  
    924      9662.606 DT     0080 Rx 0  
    925      9667.065 DT     0181 Rx 8  00 80 37 86 78 FF 01 00 
    926      9667.192 DT     0281 Rx 8  00 00 00 00 00 00 00 00 
    927      9672.583 DT     0080 Rx 0  
    928      9682.560 DT     0080 Rx 0  
    929      9692.535 DT     0080 Rx 0  
    930      9702.511 DT     0080 Rx 0  
    931      9712.487 DT     0080 Rx 0  
    932      9715.070 DT     0181 Rx 8  00 80 37 86 79 FF 01 00 
    933      9715.192 DT     0281 Rx 8  00 00 00 00 E8 03 00 00 
    934      9722.465 DT     0080 Rx 0  
    935      9732.441 DT     0080 Rx 0  
    936      9742.416 DT     0080 Rx 0  
    937      9744.911 DT     0181 Rx 8  00 80 37 86 78 FF 01 00 
    938      9745.038 DT     0281 Rx 8  00 00 00 00 00 00 00 00 
    939      9752.393 DT     0080 Rx 0  
    940      9762.371 DT     0080 Rx 0  
    941      9772.350 DT     0080 Rx 0  
    942      9778.886 DT     0281 Rx 8  00 00 00 00 E8 03 00 00 
    943      9779.072 DT     0181 Rx 8  00 80 37 86 79 FF 01 00 
    944      9782.326 DT     0080 Rx 0  
    945      9792.305 DT     0080 Rx 0  
    946      9802.282 DT     0080 Rx 0  
    947      9808.845 DT     0181 Rx 8  00 80 37 86 78 FF 01 00 
    948      9808.969 DT     0281 Rx 8  00 00 00 00 00 00 00 00 
    949      9812.258 DT     0080 Rx 0  
    950      9822.235 DT     0080 Rx 0  
    951      9832.212 DT     0080 Rx 0  
    952      9839.976 DT     0181 Rx 8  00 80 37 86 79 FF 01 00 
    953      9840.098 DT     0281 Rx 8  00 00 00 00 E8 03 00 00 
    954      9842.187 DT     0080 Rx 0  
    955      9852.164 DT     0080 Rx 0  
    956      9862.138 DT     0080 Rx 0  
    957      9869.824 DT     0181 Rx 8  00 80 37 86 79 FF 01 00 
    958      9869.949 DT     0281 Rx 8  00 00 00 00 00 00 00 00 
    959      9872.116 DT     0080 Rx 0  
    960      9882.093 DT     0080 Rx 0  
    961      9892.071 DT     0080 Rx 0  
    962      9899.808 DT     0181 Rx 8  00 80 37 86 79 FF 01 00 
    963      9899.934 DT     0281 Rx 8  00 00 00 00 00 00 00 00 
    964      9902.047 DT     0080 Rx 0  
    965      9908.736 DT     0701 Rx 1  05 
    966      9912.026 DT     0080 Rx 0  
    967      9922.002 DT     0080 Rx 0  
    968      9929.905 DT     0181 Rx 8  00 80 37 86 78 FF 01 00 
    969      9930.032 DT     0281 Rx 8  00 00 00 00 00 00 00 00 
    970      9931.981 DT     0080 Rx 0  
    971      9941.956 DT     0080 Rx 0  
    972      9951.934 DT     0080 Rx 0  
    973      9959.799 DT     0181 Rx 8  00 80 37 86 78 FF 01 00 
    974      9959.921 DT     0281 Rx 8  00 00 00 00 18 FC FF FF 
    975      9961.911 DT     0080 Rx 0  
    976      9971.890 DT     0080 Rx 0  
    977      9981.866 DT     0080 Rx 0  
    978      9989.776 DT     0181 Rx 8  00 80 37 86 78 FF 01 00 
    979      9989.903 DT     0281 Rx 8  00 00 00 00 00 00 00 00 
    980      9991.841 DT     0080 Rx 0  
    981     10001.819 DT     0080 Rx 0  
    982     10011.795 DT     0080 Rx 0  
    983     10019.732 DT     0181 Rx 8  00 80 37 86 78 FF 01 00 
    984     10019.856 DT     0281 Rx 8  00 00 00 00 00 00 00 00 
    985     10021.771 DT     0080 Rx 0  
    986     10031.746 DT     0080 Rx 0  
    987     10041.723 DT     0080 Rx 0  
    988     10051.701 DT     0080 Rx 0  
    989     10061.677 DT     0080 Rx 0  
    990     10071.656 DT     0080 Rx 0  
    991     10081.632 DT     0080 Rx 0  
    992     10091.605 DT     0080 Rx 0  
    993     10100.843 DT     0181 Rx 8  00 80 37 86 77 FF 01 00 
    994     10100.965 DT     0281 Rx 8  00 00 00 00 18 FC FF FF 
    995     10101.583 DT     0080 Rx 0  
    996     10111.556 DT     0080 Rx 0  
    997     10121.532 DT     0080 Rx 0  
    998     10130.671 DT     0281 Rx 8  00 00 00 00 00 00 00 00 
    999     10131.507 DT     0080 Rx 0  
   1000     10133.827 DT     0181 Rx 8  00 80 37 86 78 FF 01 00 
   1001     10141.483 DT     0080 Rx 0  
   1002     10151.458 DT     0080 Rx 0  
   1003     10160.647 DT     0281 Rx 8  00 00 00 00 00 00 00 00 
   1004     10161.434 DT     0080 Rx 0  
   1005     10163.677 DT     0181 Rx 8  00 80 37 86 77 FF 01 00 
   1006     10171.410 DT     0080 Rx 0  
   1007     10181.384 DT     0080 Rx 0  
   1008     10191.359 DT     0080 Rx 0  
   1009     10201.236 DT     0080 Rx 0  
   1010     10211.210 DT     0080 Rx 0  
   1011     10221.185 DT     0080 Rx 0  
   1012     10223.521 DT     0281 Rx 8  00 00 00 00 E8 03 00 00 
   1013     10223.707 DT     0181 Rx 8  00 80 37 86 78 FF 01 00 
   1014     10231.162 DT     0080 Rx 0  
   1015     10241.138 DT     0080 Rx 0  
   1016     10251.112 DT     0080 Rx 0  
   1017     10253.532 DT     0181 Rx 8  00 80 37 86 77 FF 01 00 
   1018     10253.659 DT     0281 Rx 8  00 00 00 00 00 00 00 00 
   1019     10261.088 DT     0080 Rx 0  
   1020     10271.064 DT     0080 Rx 0  
   1021     10281.041 DT     0080 Rx 0  
   1022     10283.663 DT     0181 Rx 8  00 80 37 86 78 FF 01 00 
   1023     10283.787 DT     0281 Rx 8  00 00 00 00 E8 03 00 00 
   1024     10291.013 DT     0080 Rx 0  
   1025     10300.987 DT     0080 Rx 0  
   1026     10310.962 DT     0080 Rx 0  
   1027     10313.462 DT     0181 Rx 8  00 80 37 86 78 FF 01 00 
   1028     10313.587 DT     0281 Rx 8  00 00 00 00 00 00 00 00 
   1029     10320.936 DT     0080 Rx 0  
   1030     10330.909 DT     0080 Rx 0  
   1031     10340.883 DT     0080 Rx 0  
   1032     10343.449 DT     0181 Rx 8  00 80 37 86 78 FF 01 00 
   1033     10343.576 DT     0281 Rx 8  00 00 00 00 00 00 00 00 
   1034     10350.858 DT     0080 Rx 0  
   1035     10360.833 DT     0080 Rx 0  
   1036     10370.811 DT     0080 Rx 0  
   1037     10373.407 DT     0181 Rx 8  00 80 37 86 77 FF 01 00 
   1038     10373.531 DT     0281 Rx 8  00 00 00 00 00 00 00 00 
   1039     10380.786 DT     0080 Rx 0  
   1040     10390.761 DT     0080 Rx 0  
   1041     10400.739 DT     0080 Rx 0  
   1042     10410.713 DT     0080 Rx 0  
   1043     10420.689 DT     0080 Rx 0  
   1044     10430.665 DT     0080 Rx 0  
   1045     10440.644 DT     0080 Rx 0  
   1046     10450.620 DT     0080 Rx 0  
   1047     10460.597 DT     0080 Rx 0  
   1048     10470.573 DT     0080 Rx 0  
   1049     10475.495 DT     0181 Rx 8  00 80 37 86 78 FF 01 00 
   1050     10475.617 DT     0281 Rx 8  00 00 00 00 E8 03 00 00 
   1051     10480.547 DT     0080 Rx 0  
   1052     10490.527 DT     0080 Rx 0  
   1053     10500.501 DT     0080 Rx 0  
   1054     10505.372 DT     0181 Rx 8  00 80 37 86 77 FF 01 00 
   1055     10505.498 DT     0281 Rx 8  00 00 00 00 00 00 00 00 
   1056     10510.476 DT     0080 Rx 0  
   1057     10520.451 DT     0080 Rx 0  
   1058     10530.427 DT     0080 Rx 0  
   1059     10535.353 DT     0181 Rx 8  00 80 37 86 77 FF 01 00 
   1060     10535.480 DT     0281 Rx 8  00 00 00 00 00 00 00 00 
   1061     10540.403 DT     0080 Rx 0  
   1062     10550.378 DT     0080 Rx 0  
   1063     10560.354 DT     0080 Rx 0  
   1064     10570.330 DT     0080 Rx 0  
   1065     10580.308 DT     0080 Rx 0  
   1066     10590.282 DT     0080 Rx 0  
   1067     10600.257 DT     0080 Rx 0  
   1068     10610.233 DT     0080 Rx 0  
   1069     10620.208 DT     0080 Rx 0  
   1070     10622.300 DT     0181 Rx 8  00 80 37 86 78 FF 01 00 
   1071     10622.425 DT     0281 Rx 8  00 00 00 00 E8 03 00 00 
   1072     10630.184 DT     0080 Rx 0  
   1073     10640.157 DT     0080 Rx 0  
   1074     10650.132 DT     0080 Rx 0  
   1075     10652.280 DT     0181 Rx 8  00 80 37 86 78 FF 01 00 
   1076     10652.407 DT     0281 Rx 8  00 00 00 00 00 00 00 00 
   1077     10660.108 DT     0080 Rx 0  
   1078     10670.081 DT     0080 Rx 0  
   1079     10680.057 DT     0080 Rx 0  
   1080     10682.232 DT     0181 Rx 8  00 80 37 86 77 FF 01 00 
   1081     10682.358 DT     0281 Rx 8  00 00 00 00 00 00 00 00 
   1082     10690.035 DT     0080 Rx 0  
   1083     10700.014 DT     0080 Rx 0  
   1084     10709.990 DT     0080 Rx 0  
   1085     10712.239 DT     0281 Rx 8  00 00 00 00 E8 03 00 00 
   1086     10712.424 DT     0181 Rx 8  00 80 37 86 78 FF 01 00 
   1087     10719.963 DT     0080 Rx 0  
   1088     10729.940 DT     0080 Rx 0  
   1089     10739.913 DT     0080 Rx 0  
   1090     10742.231 DT     0181 Rx 8  00 80 37 86 78 FF 01 00 
   1091     10742.358 DT     0281 Rx 8  00 00 00 00 00 00 00 00 
   1092     10749.887 DT     0080 Rx 0  
   1093     10759.862 DT     0080 Rx 0  
   1094     10769.836 DT     0080 Rx 0  
   1095     10772.195 DT     0181 Rx 8  00 80 37 86 77 FF 01 00 
   1096     10772.322 DT     0281 Rx 8  00 00 00 00 00 00 00 00 
   1097     10779.811 DT     0080 Rx 0  
   1098     10789.786 DT     0080 Rx 0  
   1099     10799.764 DT     0080 Rx 0  
   1100     10809.739 DT     0080 Rx 0  
   1101     10819.715 DT     0080 Rx 0  
   1102     10829.690 DT     0080 Rx 0  
   1103     10837.312 DT     0181 Rx 8  00 80 37 86 76 FF 01 00 
   1104     10837.434 DT     0281 Rx 8  00 00 00 00 18 FC FF FF 
   1105     10839.666 DT     0080 Rx 0  
   1106     10849.643 DT     0080 Rx 0  
   1107     10859.619 DT     0080 Rx 0  
   1108     10867.101 DT     0281 Rx 8  00 00 00 00 00 00 00 00 
   1109     10869.269 DT     0181 Rx 8  00 80 37 86 77 FF 01 00 
   1110     10869.595 DT     0080 Rx 0  
   1111     10879.571 DT     0080 Rx 0  
   1112     10889.544 DT     0080 Rx 0  
   1113     10897.084 DT     0281 Rx 8  00 00 00 00 00 00 00 00 
   1114     10899.260 DT     0181 Rx 8  00 80 37 86 76 FF 01 00 
   1115     10899.519 DT     0080 Rx 0  
   1116     10908.038 DT     0701 Rx 1  05 
   1117     10909.493 DT     0080 Rx 0  
   1118     10919.466 DT     0080 Rx 0  
   1119     10927.111 DT     0281 Rx 8  00 00 00 00 00 00 00 00 
   1120     10929.076 DT     0181 Rx 8  00 80 37 86 77 FF 01 00 
   1121     10929.437 DT     0080 Rx 0  
   1122     10939.414 DT     0080 Rx 0  
   1123     10949.389 DT     0080 Rx 0  
   1124     10959.361 DT     0080 Rx 0  
   1125     10969.336 DT     0080 Rx 0  
   1126     10979.310 DT     0080 Rx 0  
   1127     10989.285 DT     0080 Rx 0  
   1128     10999.258 DT     0080 Rx 0  
   1129     11009.228 DT     0080 Rx 0  
   1130     11019.205 DT     0080 Rx 0  
   1131     11028.147 DT     0181 Rx 8  00 80 37 86 78 FF 01 00 
   1132     11028.271 DT     0281 Rx 8  00 00 00 00 E8 03 00 00 
   1133     11029.181 DT     0080 Rx 0  
   1134     11039.157 DT     0080 Rx 0  
   1135     11049.130 DT     0080 Rx 0  
   1136     11058.127 DT     0181 Rx 8  00 80 37 86 77 FF 01 00 
   1137     11058.249 DT     0281 Rx 8  00 00 00 00 18 FC FF FF 
   1138     11059.108 DT     0080 Rx 0  
   1139     11069.086 DT     0080 Rx 0  
   1140     11079.062 DT     0080 Rx 0  
   1141     11088.015 DT     0181 Rx 8  00 80 37 86 77 FF 01 00 
   1142     11088.141 DT     0281 Rx 8  00 00 00 00 00 00 00 00 
   1143     11089.035 DT     0080 Rx 0  
   1144     11099.012 DT     0080 Rx 0  
   1145     11108.986 DT     0080 Rx 0  
   1146     11118.961 DT     0080 Rx 0  
   1147     11128.938 DT     0080 Rx 0  
   1148     11138.913 DT     0080 Rx 0  
   1149     11148.887 DT     0080 Rx 0  
   1150     11158.863 DT     0080 Rx 0  
   1151     11168.838 DT     0080 Rx 0  
   1152     11178.814 DT     0080 Rx 0  
   1153     11188.790 DT     0080 Rx 0  
   1154     11198.666 DT     0080 Rx 0  
   1155     11208.644 DT     0080 Rx 0  
   1156     11212.851 DT     0181 Rx 8  00 80 37 86 78 FF 01 00 
   1157     11212.973 DT     0281 Rx 8  00 00 00 00 E8 03 00 00 
   1158     11218.621 DT     0080 Rx 0  
   1159     11228.597 DT     0080 Rx 0  
   1160     11238.572 DT     0080 Rx 0  
   1161     11242.908 DT     0181 Rx 8  00 80 37 86 77 FF 01 00 
   1162     11243.035 DT     0281 Rx 8  00 00 00 00 00 00 00 00 
   1163     11248.547 DT     0080 Rx 0  
   1164     11258.522 DT     0080 Rx 0  
   1165     11268.499 DT     0080 Rx 0  
   1166     11272.783 DT     0181 Rx 8  00 80 37 86 77 FF 01 00 
   1167     11272.905 DT     0281 Rx 8  00 00 00 00 18 FC FF FF 
   1168     11278.472 DT     0080 Rx 0  
   1169     11288.449 DT     0080 Rx 0  
   1170     11298.424 DT     0080 Rx 0  
   1171     11302.769 DT     0181 Rx 8  00 80 37 86 77 FF 01 00 
   1172     11302.894 DT     0281 Rx 8  00 00 00 00 00 00 00 00 
   1173     11308.401 DT     0080 Rx 0  
   1174     11318.374 DT     0080 Rx 0  
   1175     11328.350 DT     0080 Rx 0  
   1176     11332.866 DT     0181 Rx 8  00 80 37 86 78 FF 01 00 
   1177     11332.988 DT     0281 Rx 8  00 00 00 00 E8 03 00 00 
   1178     11338.327 DT     0080 Rx 0  
   1179     11348.302 DT     0080 Rx 0  
   1180     11358.276 DT     0080 Rx 0  
   1181     11362.845 DT     0181 Rx 8  00 80 37 86 77 FF 01 00 
   1182     11362.970 DT     0281 Rx 8  00 00 00 00 00 00 00 00 
   1183     11368.250 DT     0080 Rx 0  
   1184     11378.228 DT     0080 Rx 0  
   1185     11388.208 DT     0080 Rx 0  
   1186     11392.722 DT     0181 Rx 8  00 80 37 86 78 FF 01 00 
   1187     11392.849 DT     0281 Rx 8  00 00 00 00 00 00 00 00 
   1188     11398.182 DT     0080 Rx 0  
   1189     11408.156 DT     0080 Rx 0  
   1190     11418.131 DT     0080 Rx 0  
   1191     11422.683 DT     0181 Rx 8  00 80 37 86 78 FF 01 00 
   1192     11422.807 DT     0281 Rx 8  00 00 00 00 00 00 00 00 
   1193     11428.106 DT     0080 Rx 0  
   1194     11438.082 DT     0080 Rx 0  
   1195     11448.058 DT     0080 Rx 0  
   1196     11452.675 DT     0181 Rx 8  00 80 37 86 77 FF 01 00 
   1197     11452.801 DT     0281 Rx 8  00 00 00 00 00 00 00 00 
   1198     11458.032 DT     0080 Rx 0  
   1199     11468.009 DT     0080 Rx 0  
   1200     11477.983 DT     0080 Rx 0  
   1201     11482.663 DT     0181 Rx 8  00 80 37 86 77 FF 01 00 
   1202     11482.787 DT     0281 Rx 8  00 00 00 00 E8 03 00 00 
   1203     11487.961 DT     0080 Rx 0  
   1204     11497.937 DT     0080 Rx 0  
   1205     11507.915 DT     0080 Rx 0  
   1206     11512.626 DT     0181 Rx 8  00 80 37 86 78 FF 01 00 
   1207     11512.750 DT     0281 Rx 8  00 00 00 00 00 00 00 00 
   1208     11517.889 DT     0080 Rx 0  
   1209     11527.863 DT     0080 Rx 0  
   1210     11537.839 DT     0080 Rx 0  
   1211     11547.812 DT     0080 Rx 0  
   1212     11548.791 DT     0181 Rx 8  00 80 37 86 77 FF 01 00 
   1213     11548.916 DT     0281 Rx 8  00 00 00 00 18 FC FF FF 
   1214     11557.791 DT     0080 Rx 0  
   1215     11567.765 DT     0080 Rx 0  
   1216     11577.741 DT     0080 Rx 0  
   1217     11578.602 DT     0181 Rx 8  00 80 37 86 78 FF 01 00 
   1218     11578.727 DT     0281 Rx 8  00 00 00 00 00 00 00 00 
   1219     11587.718 DT     0080 Rx 0  
   1220     11597.697 DT     0080 Rx 0  
   1221     11607.673 DT     0080 Rx 0  
   1222     11617.648 DT     0080 Rx 0  
   1223     11626.734 DT     0181 Rx 8  00 80 37 86 79 FF 01 00 
   1224     11626.857 DT     0281 Rx 8  00 00 00 00 E8 03 00 00 
   1225     11627.626 DT     0080 Rx 0  
   1226     11637.603 DT     0080 Rx 0  
   1227     11647.578 DT     0080 Rx 0  
   1228     11656.559 DT     0181 Rx 8  00 80 37 86 78 FF 01 00 
   1229     11656.680 DT     0281 Rx 8  00 00 00 00 E8 03 00 00 
   1230     11657.554 DT     0080 Rx 0  
   1231     11667.531 DT     0080 Rx 0  
   1232     11677.507 DT     0080 Rx 0  
   1233     11686.564 DT     0181 Rx 8  00 80 37 86 78 FF 01 00 
   1234     11686.690 DT     0281 Rx 8  00 00 00 00 00 00 00 00 
   1235     11687.482 DT     0080 Rx 0  
   1236     11697.457 DT     0080 Rx 0  
   1237     11707.430 DT     0080 Rx 0  
   1238     11717.408 DT     0080 Rx 0  
   1239     11727.386 DT     0080 Rx 0  
   1240     11737.362 DT     0080 Rx 0  
   1241     11747.339 DT     0080 Rx 0  
   1242     11757.316 DT     0080 Rx 0  
   1243     11767.290 DT     0080 Rx 0  
   1244     11777.266 DT     0080 Rx 0  
   1245     11787.244 DT     0080 Rx 0  
   1246     11797.218 DT     0080 Rx 0  
   1247     11807.196 DT     0080 Rx 0  
   1248     11817.172 DT     0080 Rx 0  
   1249     11823.616 DT     0181 Rx 8  00 80 37 86 77 FF 01 00 
   1250     11823.738 DT     0281 Rx 8  00 00 00 00 18 FC FF FF 
   1251     11827.148 DT     0080 Rx 0  
   1252     11837.124 DT     0080 Rx 0  
   1253     11847.104 DT     0080 Rx 0  
   1254     11853.440 DT     0181 Rx 8  00 80 37 86 77 FF 01 00 
   1255     11853.564 DT     0281 Rx 8  00 00 00 00 18 FC FF FF 
   1256     11857.077 DT     0080 Rx 0  
   1257     11867.054 DT     0080 Rx 0  
   1258     11877.030 DT     0080 Rx 0  
   1259     11883.421 DT     0181 Rx 8  00 80 37 86 78 FF 01 00 
   1260     11883.548 DT     0281 Rx 8  00 00 00 00 00 00 00 00 
   1261     11887.008 DT     0080 Rx 0  
   1262     11896.984 DT     0080 Rx 0  
   1263     11906.961 DT     0080 Rx 0  
   1264     11907.356 DT     0701 Rx 1  05 
   1265     11913.404 DT     0181 Rx 8  00 80 37 86 77 FF 01 00 
   1266     11913.531 DT     0281 Rx 8  00 00 00 00 00 00 00 00 
   1267     11916.937 DT     0080 Rx 0  
   1268     11926.915 DT     0080 Rx 0  
   1269     11936.891 DT     0080 Rx 0  
   1270     11943.404 DT     0181 Rx 8  00 80 37 86 78 FF 01 00 
   1271     11943.529 DT     0281 Rx 8  00 00 00 00 00 00 00 00 
   1272     11946.867 DT     0080 Rx 0  
   1273     11956.845 DT     0080 Rx 0  
   1274     11966.821 DT     0080 Rx 0  
   1275     11973.364 DT     0181 Rx 8  00 80 37 86 78 FF 01 00 
   1276     11973.491 DT     0281 Rx 8  00 00 00 00 00 00 00 00 
   1277     11976.799 DT     0080 Rx 0  
   1278     11986.775 DT     0080 Rx 0  
   1279     11996.751 DT     0080 Rx 0  
   1280     12003.334 DT     0181 Rx 8  00 80 37 86 78 FF 01 00 
   1281     12003.461 DT     0281 Rx 8  00 00 00 00 00 00 00 00 
   1282     12006.725 DT     0080 Rx 0  
   1283     12016.700 DT     0080 Rx 0  
   1284     12026.674 DT     0080 Rx 0  
   1285     12036.648 DT     0080 Rx 0  
   1286     12046.622 DT     0080 Rx 0  
   1287     12056.598 DT     0080 Rx 0  
   1288     12062.449 DT     0181 Rx 8  00 80 37 86 77 FF 01 00 
   1289     12062.571 DT     0281 Rx 8  00 00 00 00 18 FC FF FF 
   1290     12066.573 DT     0080 Rx 0  
   1291     12076.545 DT     0080 Rx 0  
   1292     12086.519 DT     0080 Rx 0  
   1293     12092.295 DT     0281 Rx 8  00 00 00 00 00 00 00 00 
   1294     12096.494 DT     0080 Rx 0  
   1295     12106.469 DT     0080 Rx 0  
   1296     12116.447 DT     0080 Rx 0  
   1297     12126.422 DT     0080 Rx 0  
   1298     12136.396 DT     0080 Rx 0  
   1299     12146.372 DT     0080 Rx 0  
   1300     12156.347 DT     0080 Rx 0  
   1301     12166.322 DT     0080 Rx 0  
   1302     12176.296 DT     0080 Rx 0  
   1303     12186.270 DT     0080 Rx 0  
   1304     12196.141 DT     0080 Rx 0  
   1305     12206.117 DT     0080 Rx 0  
   1306     12212.133 DT     0281 Rx 8  00 00 00 00 E8 03 00 00 
   1307     12212.319 DT     0181 Rx 8  00 80 37 86 78 FF 01 00 
   1308     12216.090 DT     0080 Rx 0  
   1309     12226.067 DT     0080 Rx 0  
   1310     12236.041 DT     0080 Rx 0  
   1311     12242.087 DT     0181 Rx 8  00 80 37 86 78 FF 01 00 
   1312     12242.211 DT     0281 Rx 8  00 00 00 00 00 00 00 00 
   1313     12246.018 DT     0080 Rx 0  
   1314     12255.991 DT     0080 Rx 0  
   1315     12265.968 DT     0080 Rx 0  
   1316     12275.942 DT     0080 Rx 0  
   1317     12281.196 DT     0181 Rx 8  00 80 37 86 77 FF 01 00 
   1318     12281.318 DT     0281 Rx 8  00 00 00 00 18 FC FF FF 
   1319     12285.916 DT     0080 Rx 0  
   1320     12286.985 DT     0601 Rx 8  2F C2 60 01 0A 00 66 AB 
   1321     12287.440 DT     0581 Rx 8  60 C2 60 01 00 00 00 00 
   1322     12290.976 DT     0601 Rx 8  2F C2 60 02 FD 00 66 AB 
   1323     12291.259 DT     0581 Rx 8  60 C2 60 02 00 00 00 00 
   1324     12295.890 DT     0080 Rx 0  
   1325     12296.962 DT     0601 Rx 8  23 00 18 01 81 01 00 80 
   1326     12297.448 DT     0581 Rx 8  60 00 18 01 00 00 00 00 
   1327     12304.942 DT     0601 Rx 8  2F 00 18 02 01 00 66 AB 
   1328     12305.289 DT     0581 Rx 8  60 00 18 02 00 00 00 00 
   1329     12305.869 DT     0080 Rx 0  
   1330     12311.066 DT     0281 Rx 8  00 00 00 00 18 FC FF FF 
   1331     12314.920 DT     0601 Rx 8  2B 00 18 03 14 00 66 AB 
   1332     12315.223 DT     0581 Rx 8  60 00 18 03 00 00 00 00 
   1333     12315.844 DT     0080 Rx 0  
   1334     12322.905 DT     0601 Rx 8  23 00 18 01 81 01 00 00 
   1335     12323.396 DT     0581 Rx 8  60 00 18 01 00 00 00 00 
   1336     12323.564 DT     0181 Rx 8  00 80 37 86 78 FF 01 00 
   1337     12325.819 DT     0080 Rx 0  
   1338     12326.069 DT     0181 Rx 8  00 80 37 86 78 FF 01 00 
   1339     12328.887 DT     0601 Rx 8  23 01 18 01 81 02 00 80 
   1340     12329.234 DT     0581 Rx 8  60 01 18 01 00 00 00 00 
   1341     12334.872 DT     0601 Rx 8  2F 01 18 02 01 00 66 AB 
   1342     12335.221 DT     0581 Rx 8  60 01 18 02 00 00 00 00 
   1343     12335.798 DT     0080 Rx 0  
   1344     12336.081 DT     0181 Rx 8  00 80 37 86 77 FF 01 00 
   1345     12340.858 DT     0601 Rx 8  2B 01 18 03 14 00 66 AB 
   1346     12341.199 DT     0581 Rx 8  60 01 18 03 00 00 00 00 
   1347     12345.775 DT     0080 Rx 0  
   1348     12346.070 DT     0181 Rx 8  00 80 37 86 78 FF 01 00 
   1349     12348.842 DT     0601 Rx 8  23 01 18 01 81 02 00 00 
   1350     12349.255 DT     0581 Rx 8  60 01 18 01 00 00 00 00 
   1351     12355.750 DT     0080 Rx 0  
   1352     12356.158 DT     0181 Rx 8  00 80 37 86 78 FF 01 00 
   1353     12356.280 DT     0281 Rx 8  00 00 00 00 E8 03 00 00 
   1354     12356.821 DT     0601 Rx 8  2B 8E 20 00 00 00 66 AB 
   1355     12357.206 DT     0581 Rx 8  60 8E 20 00 00 00 00 00 
   1356     12360.813 DT     0601 Rx 8  2B C0 60 00 00 00 66 AB 
   1357     12361.232 DT     0581 Rx 8  60 C0 60 00 00 00 00 00 
   1358     12365.726 DT     0080 Rx 0  
   1359     12366.198 DT     0181 Rx 8  00 80 37 86 77 FF 01 00 
   1360     12366.320 DT     0281 Rx 8  00 00 00 00 18 FC FF FF 
   1361     12366.797 DT     0601 Rx 8  2B 73 20 00 14 00 66 AB 
   1362     12367.218 DT     0581 Rx 8  60 73 20 00 00 00 00 00 
   1363     12370.785 DT     0601 Rx 8  2B 74 20 00 80 D5 66 AB 
   1364     12371.204 DT     0581 Rx 8  60 74 20 00 00 00 00 00 
   1365     12375.704 DT     0080 Rx 0  
   1366     12376.067 DT     0181 Rx 8  00 80 37 86 77 FF 01 00 
   1367     12376.191 DT     0281 Rx 8  00 00 00 00 18 FC FF FF 
   1368     12376.773 DT     0601 Rx 8  2F 60 60 00 08 00 66 AB 
   1369     12378.003 DT     0581 Rx 8  60 60 60 00 00 00 00 00 
   1370     12385.679 DT     0080 Rx 0  
   1371     12386.168 DT     0181 Rx 8  00 80 37 92 77 FF 01 00 
   1372     12386.290 DT     0281 Rx 8  00 00 00 00 18 FC FF FF 
   1373     12395.657 DT     0080 Rx 0  
   1374     12396.141 DT     0181 Rx 8  00 80 37 92 77 FF 01 00 
   1375     12396.267 DT     0281 Rx 8  00 00 00 00 00 00 00 00 
   1376     12405.632 DT     0080 Rx 0  
   1377     12406.030 DT     0181 Rx 8  00 80 37 92 77 FF 01 00 
   1378     12406.157 DT     0281 Rx 8  00 00 00 00 00 00 00 00 
   1379     12415.609 DT     0080 Rx 0  
   1380     12416.135 DT     0181 Rx 8  00 80 37 92 77 FF 01 00 
   1381     12416.259 DT     0281 Rx 8  00 00 00 00 18 FC FF FF 
   1382     12425.587 DT     0080 Rx 0  
   1383     12426.144 DT     0181 Rx 8  00 80 37 92 78 FF 01 00 
   1384     12426.268 DT     0281 Rx 8  00 00 00 00 E8 03 00 00 
   1385     12435.562 DT     0080 Rx 0  
   1386     12436.099 DT     0181 Rx 8  00 80 37 92 78 FF 01 00 
   1387     12436.223 DT     0281 Rx 8  00 00 00 00 E8 03 00 00 
   1388     12445.538 DT     0080 Rx 0  
   1389     12446.121 DT     0181 Rx 8  00 80 37 92 78 FF 01 00 
   1390     12446.245 DT     0281 Rx 8  00 00 00 00 00 00 00 00 
   1391     12455.511 DT     0080 Rx 0  
   1392     12456.124 DT     0181 Rx 8  00 80 37 92 77 FF 01 00 
   1393     12456.251 DT     0281 Rx 8  00 00 00 00 18 FC FF FF 
   1394     12465.487 DT     0080 Rx 0  
   1395     12466.011 DT     0181 Rx 8  00 80 37 92 77 FF 01 00 
   1396     12466.136 DT     0281 Rx 8  00 00 00 00 00 00 00 00 
   1397     12475.462 DT     0080 Rx 0  
   1398     12476.104 DT     0181 Rx 8  00 80 37 92 77 FF 01 00 
   1399     12476.228 DT     0281 Rx 8  00 00 00 00 00 00 00 00 
   1400     12485.437 DT     0080 Rx 0  
   1401     12485.997 DT     0181 Rx 8  00 80 37 92 77 FF 01 00 
   1402     12486.124 DT     0281 Rx 8  00 00 00 00 00 00 00 00 
   1403     12495.410 DT     0080 Rx 0  
   1404     12495.972 DT     0181 Rx 8  00 80 37 92 77 FF 01 00 
   1405     12496.096 DT     0281 Rx 8  00 00 00 00 00 00 00 00 
   1406     12505.385 DT     0080 Rx 0  
   1407     12506.079 DT     0181 Rx 8  00 80 37 92 77 FF 01 00 
   1408     12506.204 DT     0281 Rx 8  00 00 00 00 00 00 00 00 
   1409     12515.361 DT     0080 Rx 0  
   1410     12516.091 DT     0181 Rx 8  00 80 37 92 77 FF 01 00 
   1411     12516.216 DT     0281 Rx 8  00 00 00 00 00 00 00 00 
   1412     12525.338 DT     0080 Rx 0  
   1413     12525.959 DT     0181 Rx 8  00 80 37 92 77 FF 01 00 
   1414     12526.086 DT     0281 Rx 8  00 00 00 00 00 00 00 00 
   1415     12535.314 DT     0080 Rx 0  
   1416     12535.950 DT     0181 Rx 8  00 80 37 92 77 FF 01 00 
   1417     12536.074 DT     0281 Rx 8  00 00 00 00 00 00 00 00 
   1418     12545.290 DT     0080 Rx 0  
   1419     12546.039 DT     0181 Rx 8  00 80 37 92 78 FF 01 00 
   1420     12546.166 DT     0281 Rx 8  00 00 00 00 00 00 00 00 
   1421     12555.267 DT     0080 Rx 0  
   1422     12555.937 DT     0181 Rx 8  00 80 37 92 78 FF 01 00 
   1423     12556.064 DT     0281 Rx 8  00 00 00 00 00 00 00 00 
   1424     12565.242 DT     0080 Rx 0  
   1425     12566.054 DT     0181 Rx 8  00 80 37 92 78 FF 01 00 
   1426     12566.181 DT     0281 Rx 8  00 00 00 00 00 00 00 00 
   1427     12575.215 DT     0080 Rx 0  
   1428     12576.051 DT     0181 Rx 8  00 80 37 92 78 FF 01 00 
   1429     12576.178 DT     0281 Rx 8  00 00 00 00 00 00 00 00 
   1430     12585.189 DT     0080 Rx 0  
   1431     12585.912 DT     0181 Rx 8  00 80 37 92 78 FF 01 00 
   1432     12586.037 DT     0281 Rx 8  00 00 00 00 00 00 00 00 
   1433     12595.164 DT     0080 Rx 0  
   1434     12596.049 DT     0181 Rx 8  00 80 37 92 78 FF 01 00 
   1435     12596.176 DT     0281 Rx 8  00 00 00 00 00 00 00 00 
   1436     12605.141 DT     0080 Rx 0  
   1437     12605.905 DT     0181 Rx 8  00 80 37 92 78 FF 01 00 
   1438     12606.032 DT     0281 Rx 8  00 00 00 00 00 00 00 00 
   1439     12615.117 DT     0080 Rx 0  
   1440     12615.904 DT     0181 Rx 8  00 80 37 92 78 FF 01 00 
   1441     12616.029 DT     0281 Rx 8  00 00 00 00 00 00 00 00 
   1442     12625.090 DT     0080 Rx 0  
   1443     12625.998 DT     0181 Rx 8  00 80 37 92 79 FF 01 00 
   1444     12626.122 DT     0281 Rx 8  00 00 00 00 00 00 00 00 
   1445     12635.064 DT     0080 Rx 0  
   1446     12636.020 DT     0181 Rx 8  00 80 37 92 78 FF 01 00 
   1447     12636.144 DT     0281 Rx 8  00 00 00 00 00 00 00 00 
   1448     12645.041 DT     0080 Rx 0  
   1449     12646.008 DT     0181 Rx 8  00 80 37 92 78 FF 01 00 
   1450     12646.131 DT     0281 Rx 8  00 00 00 00 00 00 00 00 
   1451     12655.015 DT     0080 Rx 0  
   1452     12655.973 DT     0181 Rx 8  00 80 37 92 78 FF 01 00 
   1453     12656.098 DT     0281 Rx 8  00 00 00 00 00 00 00 00 
   1454     12664.990 DT     0080 Rx 0  
   1455     12665.975 DT     0181 Rx 8  00 80 37 92 78 FF 01 00 
   1456     12666.102 DT     0281 Rx 8  00 00 00 00 00 00 00 00 
   1457     12674.965 DT     0080 Rx 0  
   1458     12675.988 DT     0181 Rx 8  00 80 37 92 78 FF 01 00 
   1459     12676.115 DT     0281 Rx 8  00 00 00 00 00 00 00 00 
   1460     12684.943 DT     0080 Rx 0  
   1461     12685.857 DT     0181 Rx 8  00 80 37 92 78 FF 01 00 
   1462     12685.984 DT     0281 Rx 8  00 00 00 00 00 00 00 00 
   1463     12694.918 DT     0080 Rx 0  
   1464     12695.965 DT     0181 Rx 8  00 80 37 92 78 FF 01 00 
   1465     12696.089 DT     0281 Rx 8  00 00 00 00 00 00 00 00 
   1466     12704.895 DT     0080 Rx 0  
   1467     12705.841 DT     0181 Rx 8  00 80 37 92 78 FF 01 00 
   1468     12705.966 DT     0281 Rx 8  00 00 00 00 00 00 00 00 
   1469     12714.871 DT     0080 Rx 0  
   1470     12715.856 DT     0181 Rx 8  00 80 37 92 78 FF 01 00 
   1471     12715.983 DT     0281 Rx 8  00 00 00 00 00 00 00 00 
   1472     12724.847 DT     0080 Rx 0  
   1473     12725.922 DT     0181 Rx 8  00 80 37 92 78 FF 01 00 
   1474     12726.048 DT     0281 Rx 8  00 00 00 00 00 00 00 00 
   1475     12734.823 DT     0080 Rx 0  
   1476     12735.956 DT     0181 Rx 8  00 80 37 92 78 FF 01 00 
   1477     12736.080 DT     0281 Rx 8  00 00 00 00 00 00 00 00 
   1478     12744.798 DT     0080 Rx 0  
   1479     12745.816 DT     0181 Rx 8  00 80 37 92 78 FF 01 00 
   1480     12745.940 DT     0281 Rx 8  00 00 00 00 00 00 00 00 
   1481     12754.774 DT     0080 Rx 0  
   1482     12755.948 DT     0181 Rx 8  00 80 37 92 78 FF 01 00 
   1483     12756.072 DT     0281 Rx 8  00 00 00 00 00 00 00 00 
   1484     12764.748 DT     0080 Rx 0  
   1485     12765.808 DT     0181 Rx 8  00 80 37 92 79 FF 01 00 
   1486     12765.932 DT     0281 Rx 8  00 00 00 00 00 00 00 00 
   1487     12774.721 DT     0080 Rx 0  
   1488     12775.904 DT     0181 Rx 8  00 80 37 92 79 FF 01 00 
   1489     12776.031 DT     0281 Rx 8  00 00 00 00 00 00 00 00 
   1490     12784.697 DT     0080 Rx 0  
   1491     12785.932 DT     0181 Rx 8  00 80 37 92 79 FF 01 00 
   1492     12786.059 DT     0281 Rx 8  00 00 00 00 00 00 00 00 
   1493     12794.672 DT     0080 Rx 0  
   1494     12795.892 DT     0181 Rx 8  00 80 37 92 78 FF 01 00 
   1495     12796.018 DT     0281 Rx 8  00 00 00 00 00 00 00 00 
   1496     12804.649 DT     0080 Rx 0  
   1497     12805.793 DT     0181 Rx 8  00 80 37 92 78 FF 01 00 
   1498     12805.918 DT     0281 Rx 8  00 00 00 00 00 00 00 00 
   1499     12814.620 DT     0080 Rx 0  
   1500     12815.892 DT     0181 Rx 8  00 80 37 92 78 FF 01 00 
   1501     12816.016 DT     0281 Rx 8  00 00 00 00 00 00 00 00 
   1502     12824.593 DT     0080 Rx 0  
   1503     12825.900 DT     0181 Rx 8  00 80 37 92 78 FF 01 00 
   1504     12826.027 DT     0281 Rx 8  00 00 00 00 00 00 00 00 
   1505     12834.566 DT     0080 Rx 0  
   1506     12835.739 DT     0181 Rx 8  00 80 37 92 78 FF 01 00 
   1507     12835.866 DT     0281 Rx 8  00 00 00 00 00 00 00 00 
   1508     12844.541 DT     0080 Rx 0  
   1509     12845.850 DT     0181 Rx 8  00 80 37 92 78 FF 01 00 
   1510     12845.975 DT     0281 Rx 8  00 00 00 00 00 00 00 00 
   1511     12854.516 DT     0080 Rx 0  
   1512     12854.878 DT     0181 Rx 8  00 80 37 92 78 FF 01 00 
   1513     12855.003 DT     0281 Rx 8  00 00 00 00 00 00 00 00 
   1514     12864.490 DT     0080 Rx 0  
   1515     12864.873 DT     0181 Rx 8  00 80 37 92 78 FF 01 00 
   1516     12864.997 DT     0281 Rx 8  00 00 00 00 00 00 00 00 
   1517     12874.464 DT     0080 Rx 0  
   1518     12874.756 DT     0181 Rx 8  00 80 37 92 78 FF 01 00 
   1519     12874.882 DT     0281 Rx 8  00 00 00 00 00 00 00 00 
   1520     12884.441 DT     0080 Rx 0  
   1521     12884.839 DT     0181 Rx 8  00 80 37 92 78 FF 01 00 
   1522     12884.966 DT     0281 Rx 8  00 00 00 00 00 00 00 00 
   1523     12894.418 DT     0080 Rx 0  
   1524     12894.742 DT     0181 Rx 8  00 80 37 92 78 FF 01 00 
   1525     12894.866 DT     0281 Rx 8  00 00 00 00 00 00 00 00 
   1526     12904.394 DT     0080 Rx 0  
   1527     12904.826 DT     0181 Rx 8  00 80 37 92 78 FF 01 00 
   1528     12904.950 DT     0281 Rx 8  00 00 00 00 00 00 00 00 
   1529     12906.655 DT     0701 Rx 1  05 
   1530     12914.370 DT     0080 Rx 0  
   1531     12914.822 DT     0181 Rx 8  00 80 37 92 78 FF 01 00 
   1532     12914.949 DT     0281 Rx 8  00 00 00 00 00 00 00 00 
   1533     12924.347 DT     0080 Rx 0  
   1534     12924.709 DT     0181 Rx 8  00 80 37 92 78 FF 01 00 
   1535     12924.835 DT     0281 Rx 8  00 00 00 00 00 00 00 00 
   1536     12934.323 DT     0080 Rx 0  
   1537     12934.820 DT     0181 Rx 8  00 80 37 92 78 FF 01 00 
   1538     12934.944 DT     0281 Rx 8  00 00 00 00 00 00 00 00 
   1539     12944.300 DT     0080 Rx 0  
   1540     12944.696 DT     0181 Rx 8  00 80 37 92 78 FF 01 00 
   1541     12944.823 DT     0281 Rx 8  00 00 00 00 00 00 00 00 
   1542     12954.277 DT     0080 Rx 0  
   1543     12954.713 DT     0181 Rx 8  00 80 37 92 78 FF 01 00 
   1544     12954.837 DT     0281 Rx 8  00 00 00 00 00 00 00 00 
   1545     12964.253 DT     0080 Rx 0  
   1546     12964.802 DT     0181 Rx 8  00 80 37 92 78 FF 01 00 
   1547     12964.932 DT     0281 Rx 8  00 00 00 00 00 00 00 00 
   1548     12974.232 DT     0080 Rx 0  
   1549     12974.790 DT     0181 Rx 8  00 80 37 92 78 FF 01 00 
   1550     12974.914 DT     0281 Rx 8  00 00 00 00 00 00 00 00 
   1551     12984.209 DT     0080 Rx 0  
   1552     12984.679 DT     0181 Rx 8  00 80 37 92 78 FF 01 00 
   1553     12984.806 DT     0281 Rx 8  00 00 00 00 00 00 00 00 
   1554     12994.185 DT     0080 Rx 0  
   1555     12994.764 DT     0181 Rx 8  00 80 37 92 78 FF 01 00 
   1556     12994.890 DT     0281 Rx 8  00 00 00 00 00 00 00 00 
   1557     13004.162 DT     0080 Rx 0  
   1558     13004.809 DT     0181 Rx 8  00 80 37 92 78 FF 01 00 
   1559     13004.933 DT     0281 Rx 8  00 00 00 00 00 00 00 00 
   1560     13014.139 DT     0080 Rx 0  
   1561     13014.768 DT     0181 Rx 8  00 80 37 92 78 FF 01 00 
   1562     13014.892 DT     0281 Rx 8  00 00 00 00 00 00 00 00 
   1563     13024.117 DT     0080 Rx 0  
   1564     13024.646 DT     0181 Rx 8  00 80 37 92 78 FF 01 00 
   1565     13024.773 DT     0281 Rx 8  00 00 00 00 00 00 00 00 
   1566     13034.093 DT     0080 Rx 0  
   1567     13034.659 DT     0181 Rx 8  00 80 37 92 78 FF 01 00 
   1568     13034.786 DT     0281 Rx 8  00 00 00 00 00 00 00 00 
   1569     13044.068 DT     0080 Rx 0  
   1570     13044.727 DT     0181 Rx 8  00 80 37 92 78 FF 01 00 
   1571     13044.852 DT     0281 Rx 8  00 00 00 00 00 00 00 00 
   1572     13054.041 DT     0080 Rx 0  
   1573     13054.758 DT     0181 Rx 8  00 80 37 92 78 FF 01 00 
   1574     13054.887 DT     0281 Rx 8  00 00 00 00 00 00 00 00 
   1575     13064.015 DT     0080 Rx 0  
   1576     13064.620 DT     0181 Rx 8  00 80 37 92 78 FF 01 00 
   1577     13064.747 DT     0281 Rx 8  00 00 00 00 00 00 00 00 
   1578     13073.992 DT     0080 Rx 0  
   1579     13074.727 DT     0181 Rx 8  00 80 37 92 78 FF 01 00 
   1580     13074.852 DT     0281 Rx 8  00 00 00 00 00 00 00 00 
   1581     13083.967 DT     0080 Rx 0  
   1582     13084.724 DT     0181 Rx 8  00 80 37 92 78 FF 01 00 
   1583     13084.848 DT     0281 Rx 8  00 00 00 00 00 00 00 00 
   1584     13093.946 DT     0080 Rx 0  
   1585     13094.699 DT     0181 Rx 8  00 80 37 92 78 FF 01 00 
   1586     13094.826 DT     0281 Rx 8  00 00 00 00 00 00 00 00 
   1587     13103.923 DT     0080 Rx 0  
   1588     13104.898 DT     0181 Rx 8  00 80 37 92 77 FF 01 00 
   1589     13105.025 DT     0281 Rx 8  00 00 00 00 00 00 00 00 
   1590     13113.901 DT     0080 Rx 0  
   1591     13114.592 DT     0181 Rx 8  00 80 37 92 78 FF 01 00 
   1592     13114.719 DT     0281 Rx 8  00 00 00 00 00 00 00 00 
   1593     13123.878 DT     0080 Rx 0  
   1594     13124.585 DT     0181 Rx 8  00 80 37 92 77 FF 01 00 
   1595     13124.710 DT     0281 Rx 8  00 00 00 00 00 00 00 00 
   1596     13133.855 DT     0080 Rx 0  
   1597     13134.599 DT     0181 Rx 8  00 80 37 92 78 FF 01 00 
   1598     13134.724 DT     0281 Rx 8  00 00 00 00 00 00 00 00 
   1599     13143.830 DT     0080 Rx 0  
   1600     13144.692 DT     0181 Rx 8  00 80 37 92 78 FF 01 00 
   1601     13144.819 DT     0281 Rx 8  00 00 00 00 00 00 00 00 
   1602     13153.808 DT     0080 Rx 0  
   1603     13154.580 DT     0181 Rx 8  00 80 37 92 78 FF 01 00 
   1604     13154.707 DT     0281 Rx 8  00 00 00 00 00 00 00 00 
   1605     13163.785 DT     0080 Rx 0  
   1606     13164.669 DT     0181 Rx 8  00 80 37 92 78 FF 01 00 
   1607     13164.794 DT     0281 Rx 8  00 00 00 00 00 00 00 00 
   1608     13173.758 DT     0080 Rx 0  
   1609     13174.668 DT     0181 Rx 8  00 80 37 92 78 FF 01 00 
   1610     13174.795 DT     0281 Rx 8  00 00 00 00 00 00 00 00 
   1611     13183.735 DT     0080 Rx 0  
   1612     13184.668 DT     0181 Rx 8  00 80 37 92 78 FF 01 00 
   1613     13184.795 DT     0281 Rx 8  00 00 00 00 00 00 00 00 
   1614     13193.712 DT     0080 Rx 0  
   1615     13194.556 DT     0181 Rx 8  00 80 37 92 78 FF 01 00 
   1616     13194.680 DT     0281 Rx 8  00 00 00 00 00 00 00 00 
   1617     13203.588 DT     0080 Rx 0  
   1618     13204.590 DT     0181 Rx 8  00 80 37 92 78 FF 01 00 
   1619     13204.718 DT     0281 Rx 8  00 00 00 00 00 00 00 00 
   1620     13213.563 DT     0080 Rx 0  
   1621     13214.452 DT     0181 Rx 8  00 80 37 92 77 FF 01 00 
   1622     13214.579 DT     0281 Rx 8  00 00 00 00 00 00 00 00 
   1623     13223.542 DT     0080 Rx 0  
   1624     13224.543 DT     0181 Rx 8  00 80 37 92 78 FF 01 00 
   1625     13224.670 DT     0281 Rx 8  00 00 00 00 00 00 00 00 
   1626     13233.520 DT     0080 Rx 0  
   1627     13234.539 DT     0181 Rx 8  00 80 37 92 77 FF 01 00 
   1628     13234.666 DT     0281 Rx 8  00 00 00 00 00 00 00 00 
   1629     13243.498 DT     0080 Rx 0  
   1630     13244.541 DT     0181 Rx 8  00 80 37 92 78 FF 01 00 
   1631     13244.668 DT     0281 Rx 8  00 00 00 00 00 00 00 00 
   1632     13253.476 DT     0080 Rx 0  
   1633     13254.425 DT     0181 Rx 8  00 80 37 92 77 FF 01 00 
   1634     13254.552 DT     0281 Rx 8  00 00 00 00 00 00 00 00 
   1635     13263.452 DT     0080 Rx 0  
   1636     13264.520 DT     0181 Rx 8  00 80 37 92 78 FF 01 00 
   1637     13264.647 DT     0281 Rx 8  00 00 00 00 00 00 00 00 
   1638     13273.431 DT     0080 Rx 0  
   1639     13274.514 DT     0181 Rx 8  00 80 37 92 77 FF 01 00 
   1640     13274.641 DT     0281 Rx 8  00 00 00 00 00 00 00 00 
   1641     13283.406 DT     0080 Rx 0  
   1642     13284.527 DT     0181 Rx 8  00 80 37 92 77 FF 01 00 
   1643     13284.654 DT     0281 Rx 8  00 00 00 00 00 00 00 00 
   1644     13293.383 DT     0080 Rx 0  
   1645     13294.518 DT     0181 Rx 8  00 80 37 92 77 FF 01 00 
   1646     13294.645 DT     0281 Rx 8  00 00 00 00 00 00 00 00 
   1647     13303.358 DT     0080 Rx 0  
   1648     13304.386 DT     0181 Rx 8  00 80 37 92 77 FF 01 00 
   1649     13304.513 DT     0281 Rx 8  00 00 00 00 00 00 00 00 
   1650     13313.336 DT     0080 Rx 0  
   1651     13314.479 DT     0181 Rx 8  00 80 37 92 77 FF 01 00 
   1652     13314.605 DT     0281 Rx 8  00 00 00 00 00 00 00 00 
   1653     13323.315 DT     0080 Rx 0  
   1654     13324.498 DT     0181 Rx 8  00 80 37 92 78 FF 01 00 
   1655     13324.625 DT     0281 Rx 8  00 00 00 00 00 00 00 00 
   1656     13333.292 DT     0080 Rx 0  
   1657     13334.491 DT     0181 Rx 8  00 80 37 92 78 FF 01 00 
   1658     13334.615 DT     0281 Rx 8  00 00 00 00 00 00 00 00 
   1659     13343.268 DT     0080 Rx 0  
   1660     13344.363 DT     0181 Rx 8  00 80 37 92 78 FF 01 00 
   1661     13344.490 DT     0281 Rx 8  00 00 00 00 00 00 00 00 
   1662     13353.246 DT     0080 Rx 0  
   1663     13354.454 DT     0181 Rx 8  00 80 37 92 77 FF 01 00 
   1664     13354.578 DT     0281 Rx 8  00 00 00 00 00 00 00 00 
   1665     13363.224 DT     0080 Rx 0  
   1666     13364.338 DT     0181 Rx 8  00 80 37 92 78 FF 01 00 
   1667     13364.465 DT     0281 Rx 8  00 00 00 00 00 00 00 00 
   1668     13373.199 DT     0080 Rx 0  
   1669     13374.345 DT     0181 Rx 8  00 80 37 92 78 FF 01 00 
   1670     13374.470 DT     0281 Rx 8  00 00 00 00 00 00 00 00 
   1671     13383.177 DT     0080 Rx 0  
   1672     13384.330 DT     0181 Rx 8  00 80 37 92 77 FF 01 00 
   1673     13384.452 DT     0281 Rx 8  00 00 00 00 18 FC FF FF 
   1674     13393.154 DT     0080 Rx 0  
   1675     13394.434 DT     0181 Rx 8  00 80 37 92 77 FF 01 00 
   1676     13394.556 DT     0281 Rx 8  00 00 00 00 18 FC FF FF 
   1677     13403.132 DT     0080 Rx 0  
   1678     13404.452 DT     0181 Rx 8  00 80 37 92 77 FF 01 00 
   1679     13404.577 DT     0281 Rx 8  00 00 00 00 00 00 00 00 
   1680     13413.108 DT     0080 Rx 0  
   1681     13414.446 DT     0181 Rx 8  00 80 37 92 77 FF 01 00 
   1682     13414.570 DT     0281 Rx 8  00 00 00 00 00 00 00 00 
   1683     13423.082 DT     0080 Rx 0  
   1684     13424.424 DT     0181 Rx 8  00 80 37 92 77 FF 01 00 
   1685     13424.552 DT     0281 Rx 8  00 00 00 00 00 00 00 00 
   1686     13433.059 DT     0080 Rx 0  
   1687     13433.458 DT     0181 Rx 8  00 80 37 92 77 FF 01 00 
   1688     13433.584 DT     0281 Rx 8  00 00 00 00 00 00 00 00 
   1689     13443.033 DT     0080 Rx 0  
   1690     13443.304 DT     0181 Rx 8  00 80 37 92 77 FF 01 00 
   1691     13443.431 DT     0281 Rx 8  00 00 00 00 00 00 00 00 
   1692     13453.009 DT     0080 Rx 0  
   1693     13453.443 DT     0181 Rx 8  00 80 37 92 77 FF 01 00 
   1694     13453.568 DT     0281 Rx 8  00 00 00 00 00 00 00 00 
   1695     13462.983 DT     0080 Rx 0  
   1696     13463.434 DT     0181 Rx 8  00 80 37 92 76 FF 01 00 
   1697     13463.561 DT     0281 Rx 8  00 00 00 00 00 00 00 00 
   1698     13472.958 DT     0080 Rx 0  
   1699     13473.410 DT     0181 Rx 8  00 80 37 92 76 FF 01 00 
   1700     13473.534 DT     0281 Rx 8  00 00 00 00 18 FC FF FF 
   1701     13482.930 DT     0080 Rx 0  
   1702     13483.277 DT     0181 Rx 8  00 80 37 92 77 FF 01 00 
   1703     13483.404 DT     0281 Rx 8  00 00 00 00 00 00 00 00 
   1704     13492.907 DT     0080 Rx 0  
   1705     13493.379 DT     0181 Rx 8  00 80 37 92 76 FF 01 00 
   1706     13493.506 DT     0281 Rx 8  00 00 00 00 00 00 00 00 
   1707     13502.880 DT     0080 Rx 0  
   1708     13503.366 DT     0181 Rx 8  00 80 37 92 77 FF 01 00 
   1709     13503.493 DT     0281 Rx 8  00 00 00 00 00 00 00 00 
   1710     13512.857 DT     0080 Rx 0  
   1711     13513.357 DT     0181 Rx 8  00 80 37 92 76 FF 01 00 
   1712     13513.482 DT     0281 Rx 8  00 00 00 00 00 00 00 00 
   1713     13522.831 DT     0080 Rx 0  
   1714     13523.353 DT     0181 Rx 8  00 80 37 92 77 FF 01 00 
   1715     13523.478 DT     0281 Rx 8  00 00 00 00 00 00 00 00 
   1716     13532.807 DT     0080 Rx 0  
   1717     13533.370 DT     0181 Rx 8  00 80 37 92 77 FF 01 00 
   1718     13533.495 DT     0281 Rx 8  00 00 00 00 00 00 00 00 
   1719     13542.784 DT     0080 Rx 0  
   1720     13543.350 DT     0181 Rx 8  00 80 37 92 77 FF 01 00 
   1721     13543.478 DT     0281 Rx 8  00 00 00 00 00 00 00 00 
   1722     13552.758 DT     0080 Rx 0  
   1723     13553.230 DT     0181 Rx 8  00 80 37 92 77 FF 01 00 
   1724     13553.352 DT     0281 Rx 8  00 00 00 00 E8 03 00 00 
   1725     13562.734 DT     0080 Rx 0  
   1726     13563.325 DT     0181 Rx 8  00 80 37 92 76 FF 01 00 
   1727     13563.446 DT     0281 Rx 8  00 00 00 00 18 FC FF FF 
   1728     13572.709 DT     0080 Rx 0  
   1729     13573.209 DT     0181 Rx 8  00 80 37 92 76 FF 01 00 
   1730     13573.336 DT     0281 Rx 8  00 00 00 00 00 00 00 00 
   1731     13582.683 DT     0080 Rx 0  
   1732     13583.296 DT     0181 Rx 8  00 80 37 92 76 FF 01 00 
   1733     13583.423 DT     0281 Rx 8  00 00 00 00 00 00 00 00 
   1734     13592.659 DT     0080 Rx 0  
   1735     13593.360 DT     0181 Rx 8  00 80 37 92 76 FF 01 00 
   1736     13593.482 DT     0281 Rx 8  00 00 00 00 18 FC FF FF 
   1737     13602.636 DT     0080 Rx 0  
   1738     13603.305 DT     0181 Rx 8  00 80 37 92 77 FF 01 00 
   1739     13603.432 DT     0281 Rx 8  00 00 00 00 00 00 00 00 
   1740     13612.610 DT     0080 Rx 0  
   1741     13613.341 DT     0181 Rx 8  00 80 37 92 77 FF 01 00 
   1742     13613.466 DT     0281 Rx 8  00 00 00 00 00 00 00 00 
   1743     13622.589 DT     0080 Rx 0  
   1744     13623.202 DT     0181 Rx 8  00 80 37 92 76 FF 01 00 
   1745     13623.324 DT     0281 Rx 8  00 00 00 00 18 FC FF FF 
   1746     13632.564 DT     0080 Rx 0  
   1747     13633.313 DT     0181 Rx 8  00 80 37 92 77 FF 01 00 
   1748     13633.440 DT     0281 Rx 8  00 00 00 00 00 00 00 00 
   1749     13642.542 DT     0080 Rx 0  
   1750     13643.314 DT     0181 Rx 8  00 80 37 92 76 FF 01 00 
   1751     13643.441 DT     0281 Rx 8  00 00 00 00 00 00 00 00 
   1752     13652.515 DT     0080 Rx 0  
   1753     13653.172 DT     0181 Rx 8  00 80 37 92 76 FF 01 00 
   1754     13653.300 DT     0281 Rx 8  00 00 00 00 00 00 00 00 
   1755     13662.492 DT     0080 Rx 0  
   1756     13663.265 DT     0181 Rx 8  00 80 37 92 77 FF 01 00 
   1757     13663.386 DT     0281 Rx 8  00 00 00 00 E8 03 00 00 
   1758     13672.469 DT     0080 Rx 0  
   1759     13673.256 DT     0181 Rx 8  00 80 37 92 76 FF 01 00 
   1760     13673.383 DT     0281 Rx 8  00 00 00 00 00 00 00 00 
   1761     13682.444 DT     0080 Rx 0  
   1762     13683.283 DT     0181 Rx 8  00 80 37 92 77 FF 01 00 
   1763     13683.409 DT     0281 Rx 8  00 00 00 00 00 00 00 00 
   1764     13692.420 DT     0080 Rx 0  
   1765     13693.288 DT     0181 Rx 8  00 80 37 92 77 FF 01 00 
   1766     13693.415 DT     0281 Rx 8  00 00 00 00 00 00 00 00 
   1767     13702.396 DT     0080 Rx 0  
   1768     13703.246 DT     0181 Rx 8  00 80 37 92 77 FF 01 00 
   1769     13703.371 DT     0281 Rx 8  00 00 00 00 00 00 00 00 
   1770     13712.371 DT     0080 Rx 0  
   1771     13713.120 DT     0181 Rx 8  00 80 37 92 76 FF 01 00 
   1772     13713.246 DT     0281 Rx 8  00 00 00 00 00 00 00 00 
   1773     13722.346 DT     0080 Rx 0  
   1774     13723.213 DT     0181 Rx 8  00 80 37 92 76 FF 01 00 
   1775     13723.339 DT     0281 Rx 8  00 00 00 00 00 00 00 00 
   1776     13732.319 DT     0080 Rx 0  
   1777     13733.126 DT     0181 Rx 8  00 80 37 92 77 FF 01 00 
   1778     13733.251 DT     0281 Rx 8  00 00 00 00 00 00 00 00 
   1779     13742.293 DT     0080 Rx 0  
   1780     13743.110 DT     0181 Rx 8  00 80 37 92 77 FF 01 00 
   1781     13743.237 DT     0281 Rx 8  00 00 00 00 00 00 00 00 
   1782     13752.268 DT     0080 Rx 0  
   1783     13753.199 DT     0181 Rx 8  00 80 37 92 77 FF 01 00 
   1784     13753.322 DT     0281 Rx 8  00 00 00 00 E8 03 00 00 
   1785     13762.241 DT     0080 Rx 0  
   1786     13763.113 DT     0181 Rx 8  00 80 37 92 77 FF 01 00 
   1787     13763.240 DT     0281 Rx 8  00 00 00 00 00 00 00 00 
   1788     13772.215 DT     0080 Rx 0  
   1789     13773.179 DT     0181 Rx 8  00 80 37 92 77 FF 01 00 
   1790     13773.306 DT     0281 Rx 8  00 00 00 00 00 00 00 00 
   1791     13782.191 DT     0080 Rx 0  
   1792     13783.184 DT     0181 Rx 8  00 80 37 92 77 FF 01 00 
   1793     13783.308 DT     0281 Rx 8  00 00 00 00 00 00 00 00 
   1794     13792.166 DT     0080 Rx 0  
   1795     13793.231 DT     0181 Rx 8  00 80 37 92 77 FF 01 00 
   1796     13793.358 DT     0281 Rx 8  00 00 00 00 00 00 00 00 
   1797     13802.140 DT     0080 Rx 0  
   1798     13803.069 DT     0181 Rx 8  00 80 37 92 77 FF 01 00 
   1799     13803.194 DT     0281 Rx 8  00 00 00 00 00 00 00 00 
   1800     13812.115 DT     0080 Rx 0  
   1801     13813.159 DT     0181 Rx 8  00 80 37 92 77 FF 01 00 
   1802     13813.285 DT     0281 Rx 8  00 00 00 00 00 00 00 00 
   1803     13822.086 DT     0080 Rx 0  
   1804     13823.069 DT     0181 Rx 8  00 80 37 92 77 FF 01 00 
   1805     13823.196 DT     0281 Rx 8  00 00 00 00 00 00 00 00 
   1806     13832.062 DT     0080 Rx 0  
   1807     13833.179 DT     0181 Rx 8  00 80 37 92 77 FF 01 00 
   1808     13833.309 DT     0281 Rx 8  00 00 00 00 00 00 00 00 
   1809     13842.039 DT     0080 Rx 0  
   1810     13843.157 DT     0181 Rx 8  00 80 37 92 77 FF 01 00 
   1811     13843.286 DT     0281 Rx 8  00 00 00 00 00 00 00 00 
   1812     13852.014 DT     0080 Rx 0  
   1813     13853.169 DT     0181 Rx 8  00 80 37 92 77 FF 01 00 
   1814     13853.294 DT     0281 Rx 8  00 00 00 00 00 00 00 00 
   1815     13861.988 DT     0080 Rx 0  
   1816     13863.163 DT     0181 Rx 8  00 80 37 92 77 FF 01 00 
   1817     13863.290 DT     0281 Rx 8  00 00 00 00 00 00 00 00 
   1818     13871.963 DT     0080 Rx 0  
   1819     13873.027 DT     0181 Rx 8  00 80 37 92 77 FF 01 00 
   1820     13873.154 DT     0281 Rx 8  00 00 00 00 00 00 00 00 
   1821     13881.939 DT     0080 Rx 0  
   1822     13883.127 DT     0181 Rx 8  00 80 37 92 77 FF 01 00 
   1823     13883.252 DT     0281 Rx 8  00 00 00 00 00 00 00 00 
   1824     13891.912 DT     0080 Rx 0  
   1825     13893.147 DT     0181 Rx 8  00 80 37 92 77 FF 01 00 
   1826     13893.274 DT     0281 Rx 8  00 00 00 00 00 00 00 00 
   1827     13901.885 DT     0080 Rx 0  
   1828     13903.105 DT     0181 Rx 8  00 80 37 92 77 FF 01 00 
   1829     13903.229 DT     0281 Rx 8  00 00 00 00 00 00 00 00 
   1830     13905.966 DT     0701 Rx 1  05 
   1831     13911.859 DT     0080 Rx 0  
   1832     13913.013 DT     0181 Rx 8  00 80 37 92 77 FF 01 00 
   1833     13913.139 DT     0281 Rx 8  00 00 00 00 00 00 00 00 
   1834     13921.833 DT     0080 Rx 0  
   1835     13922.999 DT     0181 Rx 8  00 80 37 92 77 FF 01 00 
   1836     13923.126 DT     0281 Rx 8  00 00 00 00 00 00 00 00 
   1837     13931.811 DT     0080 Rx 0  
   1838     13933.086 DT     0181 Rx 8  00 80 37 92 77 FF 01 00 
   1839     13933.207 DT     0281 Rx 8  00 00 00 00 E8 03 00 00 
   1840     13941.787 DT     0080 Rx 0  
   1841     13942.997 DT     0181 Rx 8  00 80 37 92 77 FF 01 00 
   1842     13943.124 DT     0281 Rx 8  00 00 00 00 00 00 00 00 
   1843     13951.761 DT     0080 Rx 0  
   1844     13952.984 DT     0181 Rx 8  00 80 37 92 77 FF 01 00 
   1845     13953.108 DT     0281 Rx 8  00 00 00 00 00 00 00 00 
   1846     13961.736 DT     0080 Rx 0  
   1847     13961.988 DT     0181 Rx 8  00 80 37 92 77 FF 01 00 
   1848     13962.116 DT     0281 Rx 8  00 00 00 00 00 00 00 00 
   1849     13971.710 DT     0080 Rx 0  
   1850     13971.975 DT     0181 Rx 8  00 80 37 92 76 FF 01 00 
   1851     13972.100 DT     0281 Rx 8  00 00 00 00 18 FC FF FF 
   1852     13981.685 DT     0080 Rx 0  
   1853     13982.073 DT     0181 Rx 8  00 80 37 92 76 FF 01 00 
   1854     13982.197 DT     0281 Rx 8  00 00 00 00 00 00 00 00 
   1855     13991.659 DT     0080 Rx 0  
   1856     13992.057 DT     0181 Rx 8  00 80 37 92 76 FF 01 00 
   1857     13992.181 DT     0281 Rx 8  00 00 00 00 00 00 00 00 
   1858     14001.636 DT     0080 Rx 0  
   1859     14002.105 DT     0181 Rx 8  00 80 37 92 77 FF 01 00 
   1860     14002.230 DT     0281 Rx 8  00 00 00 00 00 00 00 00 
   1861     14002.695 DT     0201 Rx 6  0F 00 00 00 32 00 
   1862     14011.610 DT     0080 Rx 0  
   1863     14011.952 DT     0181 Rx 8  00 80 37 92 50 C3 01 00 
   1864     14012.073 DT     0281 Rx 8  00 00 00 00 28 D2 CE FF 
   1865     14012.669 DT     0201 Rx 6  0F 00 7E FF 31 00 
   1866     14021.586 DT     0080 Rx 0  
   1867     14021.943 DT     0181 Rx 8  00 80 37 92 C4 9A 01 00 
   1868     14022.065 DT     0281 Rx 8  00 00 00 00 58 D8 1F 00 
   1869     14022.642 DT     0201 Rx 6  0F 00 FA FD 31 00 
   1870     14031.559 DT     0080 Rx 0  
   1871     14032.055 DT     0181 Rx 8  00 80 37 92 37 18 02 00 
   1872     14032.177 DT     0281 Rx 8  00 00 00 00 68 F8 35 00 
   1873     14032.616 DT     0201 Rx 6  0F 00 73 FB 31 00 
   1874     14041.533 DT     0080 Rx 0  
   1875     14042.023 DT     0181 Rx 8  00 80 37 92 57 AA 02 00 
   1876     14042.145 DT     0281 Rx 8  00 00 00 00 E8 0C 3D 00 
   1877     14042.587 DT     0201 Rx 6  0F 00 EA F7 31 00 
   1878     14051.509 DT     0080 Rx 0  
   1879     14052.063 DT     0181 Rx 8  00 80 37 92 26 42 03 00 
   1880     14052.185 DT     0281 Rx 8  00 00 00 00 80 D0 3B 00 
   1881     14052.564 DT     0201 Rx 6  0F 00 5E F3 31 00 
   1882     14061.484 DT     0080 Rx 0  
   1883     14062.021 DT     0181 Rx 8  00 80 37 92 28 DB 03 00 
   1884     14062.140 DT     0281 Rx 8  00 00 00 00 00 8C 3C 00 
   1885     14062.541 DT     0201 Rx 6  0F 00 D1 ED 31 00 
   1886     14071.460 DT     0080 Rx 0  
   1887     14071.899 DT     0181 Rx 8  00 80 37 92 BC 73 04 00 
   1888     14072.019 DT     0281 Rx 8  00 00 00 00 30 96 39 00 
   1889     14072.519 DT     0201 Rx 6  0F 00 41 E7 31 00 
   1890     14081.434 DT     0080 Rx 0  
   1891     14081.914 DT     0181 Rx 8  00 80 37 92 72 0C 05 00 
   1892     14082.036 DT     0281 Rx 8  00 00 00 00 00 0F 3C 00 
   1893     14082.491 DT     0201 Rx 6  0F 00 AF DF 31 00 
   1894     14091.409 DT     0080 Rx 0  
   1895     14092.029 DT     0181 Rx 8  00 80 37 92 AD A4 05 00 
   1896     14092.148 DT     0281 Rx 8  00 00 00 00 40 3A 3A 00 
   1897     14092.468 DT     0201 Rx 6  0F 00 1C D7 31 00 
   1898     14101.383 DT     0080 Rx 0  
   1899     14101.892 DT     0181 Rx 8  00 80 37 92 FF 3C 06 00 
   1900     14102.011 DT     0281 Rx 8  00 00 00 00 50 E4 39 00 
   1901     14102.437 DT     0201 Rx 6  0F 00 88 CD 31 00 
   1902     14111.357 DT     0080 Rx 0  
   1903     14111.878 DT     0181 Rx 8  00 80 37 92 A4 D5 06 00 
   1904     14112.000 DT     0281 Rx 8  00 00 00 00 08 DE 3C 00 
   1905     14112.413 DT     0201 Rx 6  0F 00 F3 C2 31 00 
   1906     14121.331 DT     0080 Rx 0  
   1907     14121.967 DT     0181 Rx 8  00 80 37 92 D1 6E 07 00 
   1908     14122.089 DT     0281 Rx 8  00 00 00 00 10 3C 3B 00 
   1909     14122.389 DT     0201 Rx 6  0F 00 5F B7 31 00 
   1910     14131.307 DT     0080 Rx 0  
   1911     14132.002 DT     0181 Rx 8  00 80 37 92 5F 08 08 00 
   1912     14132.122 DT     0281 Rx 8  00 00 00 00 78 66 3F 00 
   1913     14132.362 DT     0201 Rx 6  0F 00 CA AA 31 00 
   1914     14141.282 DT     0080 Rx 0  
   1915     14141.882 DT     0181 Rx 8  00 80 37 92 F7 9F 08 00 
   1916     14142.004 DT     0281 Rx 8  00 00 00 00 30 8A 3B 00 
   1917     14142.338 DT     0201 Rx 6  0F 00 36 9D 31 00 
   1918     14151.257 DT     0080 Rx 0  
   1919     14151.954 DT     0181 Rx 8  00 80 37 92 19 39 09 00 
   1920     14152.079 DT     0281 Rx 8  00 00 00 00 D8 68 3C 00 
   1921     14152.311 DT     0201 Rx 6  0F 00 A3 8E 31 00 
   1922     14161.228 DT     0080 Rx 0  
   1923     14161.862 DT     0181 Rx 8  00 80 37 92 92 D1 09 00 
   1924     14161.983 DT     0281 Rx 8  00 00 00 00 98 49 3C 00 
   1925     14162.286 DT     0201 Rx 6  0F 00 12 7F 31 00 
   1926     14171.205 DT     0080 Rx 0  
   1927     14171.982 DT     0181 Rx 8  00 80 37 92 46 6A 0A 00 
   1928     14172.105 DT     0281 Rx 8  00 00 00 00 20 69 3A 00 
   1929     14172.260 DT     0201 Rx 6  0F 00 84 6E 31 00 
   1930     14181.181 DT     0080 Rx 0  
   1931     14181.956 DT     0181 Rx 8  00 80 37 92 4A 02 0B 00 
   1932     14182.083 DT     0281 Rx 8  00 00 00 00 80 BE 3E 00 
   1933     14182.237 DT     0201 Rx 6  0F 00 F8 5C 31 00 
   1934     14191.156 DT     0080 Rx 0  
   1935     14191.947 DT     0181 Rx 8  00 80 37 92 8B 9A 0B 00 
   1936     14192.069 DT     0281 Rx 8  00 00 00 00 70 B5 39 00 
   1937     14192.214 DT     0201 Rx 6  0F 00 71 4A 31 00 
   1938     14201.032 DT     0080 Rx 0  
   1939     14201.820 DT     0181 Rx 8  00 80 37 92 02 34 0C 00 
   1940     14201.942 DT     0281 Rx 8  00 00 00 00 60 88 3A 00 
   1941     14202.087 DT     0201 Rx 6  0F 00 EE 36 31 00 
   1942     14211.008 DT     0080 Rx 0  
   1943     14211.845 DT     0181 Rx 8  00 80 37 92 75 CB 0C 00 
   1944     14211.965 DT     0281 Rx 8  00 00 00 00 C8 D0 39 00 
   1945     14212.067 DT     0201 Rx 6  0F 00 71 22 31 00 
   1946     14220.986 DT     0080 Rx 0  
   1947     14221.714 DT     0181 Rx 8  00 80 37 92 3C 64 0D 00 
   1948     14221.836 DT     0281 Rx 8  00 00 00 00 10 BF 3A 00 
   1949     14222.044 DT     0201 Rx 6  0F 00 FA 0C 31 00 
   1950     14230.961 DT     0080 Rx 0  
   1951     14231.818 DT     0181 Rx 8  00 80 37 92 C3 FD 0D 00 
   1952     14231.940 DT     0281 Rx 8  00 00 00 00 48 7A 3D 00 
   1953     14232.038 DT     0201 Rx 6  0F 00 8A F6 30 00 
   1954     14240.937 DT     0080 Rx 0  
   1955     14241.850 DT     0181 Rx 8  00 80 37 92 91 95 0E 00 
   1956     14241.971 DT     0281 Rx 8  00 00 00 00 E8 18 3B 00 
   1957     14242.076 DT     0201 Rx 6  0F 00 22 DF 30 00 
   1958     14250.911 DT     0080 Rx 0  
   1959     14251.713 DT     0181 Rx 8  00 80 37 92 25 2E 0F 00 
   1960     14251.835 DT     0281 Rx 8  00 00 00 00 18 88 3C 00 
   1961     14251.967 DT     0201 Rx 6  0F 00 C2 C6 30 00 
   1962     14260.885 DT     0080 Rx 0  
   1963     14261.804 DT     0181 Rx 8  00 80 37 92 24 C7 0F 00 
   1964     14261.924 DT     0281 Rx 8  00 00 00 00 48 86 3B 00 
   1965     14262.024 DT     0201 Rx 6  0F 00 6D AD 30 00 
   1966     14270.857 DT     0080 Rx 0  
   1967     14271.790 DT     0181 Rx 8  00 80 37 92 33 60 10 00 
   1968     14271.913 DT     0281 Rx 8  00 00 00 00 18 82 3D 00 
   1969     14272.013 DT     0201 Rx 6  0F 00 23 93 30 00 
   1970     14280.835 DT     0080 Rx 0  
   1971     14281.674 DT     0181 Rx 8  00 80 37 92 BA F7 10 00 
   1972     14281.795 DT     0281 Rx 8  00 00 00 00 B8 9D 3B 00 
   1973     14281.897 DT     0201 Rx 6  0F 00 E5 77 30 00 
   1974     14290.810 DT     0080 Rx 0  
   1975     14291.687 DT     0181 Rx 8  00 80 37 92 C2 90 11 00 
   1976     14291.809 DT     0281 Rx 8  00 00 00 00 10 36 3C 00 
   1977     14291.912 DT     0201 Rx 6  0F 00 B4 5B 30 00 
   1978     14300.784 DT     0080 Rx 0  
   1979     14301.666 DT     0181 Rx 8  00 80 37 92 01 2A 12 00 
   1980     14301.787 DT     0281 Rx 8  00 00 00 00 20 5D 3C 00 
   1981     14301.889 DT     0201 Rx 6  0F 00 91 3E 30 00 
   1982     14310.758 DT     0080 Rx 0  
   1983     14311.769 DT     0181 Rx 8  00 80 37 92 BE C1 12 00 
   1984     14311.873 DT     0201 Rx 6  0F 00 7E 20 30 00 
   1985     14311.996 DT     0281 Rx 8  00 00 00 00 B8 2C 39 00 
   1986     14320.736 DT     0080 Rx 0  
   1987     14321.648 DT     0181 Rx 8  00 80 37 92 83 5A 13 00 
   1988     14321.770 DT     0281 Rx 8  00 00 00 00 C8 3B 3D 00 
   1989     14321.873 DT     0201 Rx 6  0F 00 7B 01 30 00 
   1990     14330.712 DT     0080 Rx 0  
   1991     14331.655 DT     0181 Rx 8  00 80 37 92 FE F2 13 00 
   1992     14331.777 DT     0281 Rx 8  00 00 00 00 C8 D0 39 00 
   1993     14331.881 DT     0201 Rx 6  0F 00 8B E1 2F 00 
